hour,t(sec),V1,VAngle1,V2,VAngle2,V3,VAngle3,I1,IAngle1,I2,IAngle2,I3,IAngle3
0, 900.00000, 60.5515, -36.9005, 3367.4, -136.571, 3118.41, 132.922, 2.32582, 114.452, 104.222, 9.28412, 86.316, -79.914
0, 1800.00000, 60.5268, -37.0493, 3368.13, -136.568, 3118.9, 132.933, 2.31417, 114.288, 103.751, 9.28388, 86.0957, -79.9085
0, 2700.00000, 60.5026, -37.1984, 3368.86, -136.564, 3119.39, 132.944, 2.30256, 114.124, 103.281, 9.28361, 85.8753, -79.903
1, 0.00000, 60.4789, -37.3477, 3369.59, -136.56, 3119.88, 132.956, 2.29097, 113.96, 102.81, 9.2833, 85.6548, -79.8975
1, 900.00000, 60.4557, -37.4973, 3370.32, -136.557, 3120.37, 132.967, 2.27942, 113.795, 102.339, 9.28296, 85.4342, -79.892
1, 1800.00000, 60.4403, -37.5812, 3370.71, -136.555, 3120.66, 132.973, 2.27331, 113.702, 102.076, 9.28207, 85.3027, -79.8907
1, 2700.00000, 60.4251, -37.6652, 3371.09, -136.553, 3120.95, 132.98, 2.26721, 113.609, 101.813, 9.28118, 85.1711, -79.8895
2, 0.00000, 60.41, -37.7493, 3371.47, -136.551, 3121.23, 132.986, 2.26112, 113.515, 101.55, 9.28028, 85.0395, -79.8883
2, 900.00000, 60.395, -37.8334, 3371.86, -136.55, 3121.52, 132.992, 2.25503, 113.422, 101.287, 9.27936, 84.9079, -79.8871
2, 1800.00000, 60.3864, -37.8648, 3372.01, -136.549, 3121.65, 132.995, 2.25237, 113.387, 101.201, 9.2784, 84.854, -79.887
2, 2700.00000, 60.3778, -37.8962, 3372.15, -136.549, 3121.77, 132.997, 2.2497, 113.353, 101.115, 9.27745, 84.8002, -79.887
3, 0.00000, 60.3692, -37.9276, 3372.3, -136.548, 3121.89, 133, 2.24704, 113.318, 101.029, 9.2765, 84.7463, -79.887
3, 900.00000, 60.3606, -37.959, 3372.45, -136.547, 3122.01, 133.003, 2.24438, 113.283, 100.942, 9.27554, 84.6925, -79.887
3, 1800.00000, 60.3637, -37.8716, 3372, -136.55, 3121.77, 132.996, 2.25068, 113.38, 101.241, 9.27375, 84.801, -79.8933
3, 2700.00000, 60.3669, -37.7841, 3371.56, -136.553, 3121.53, 132.99, 2.25698, 113.476, 101.54, 9.27197, 84.9095, -79.8996
4, 0.00000, 60.3703, -37.6967, 3371.11, -136.556, 3121.29, 132.984, 2.2633, 113.572, 101.839, 9.27019, 85.018, -79.9058
4, 900.00000, 60.3739, -37.6093, 3370.66, -136.558, 3121.05, 132.978, 2.26963, 113.668, 102.137, 9.2684, 85.1264, -79.9121
4, 1800.00000, 60.3945, -37.3584, 3369.38, -136.566, 3120.32, 132.96, 2.28853, 113.944, 102.968, 9.26513, 85.4564, -79.9277
4, 2700.00000, 60.4165, -37.108, 3368.11, -136.573, 3119.59, 132.942, 2.30752, 114.219, 103.798, 9.26182, 85.7861, -79.9433
5, 0.00000, 60.4398, -36.8582, 3366.83, -136.581, 3118.86, 132.924, 2.32658, 114.494, 104.627, 9.25844, 86.1158, -79.9589
5, 900.00000, 60.4646, -36.6091, 3365.56, -136.588, 3118.13, 132.907, 2.34573, 114.767, 105.456, 9.255, 86.4452, -79.9744
5, 1800.00000, 60.5191, -36.1474, 3363.12, -136.602, 3116.75, 132.873, 2.38349, 115.271, 106.961, 9.24897, 87.0575, -80.0056
5, 2700.00000, 60.5784, -35.6881, 3360.7, -136.617, 3115.38, 132.839, 2.42154, 115.772, 108.463, 9.24274, 87.6692, -80.0368
6, 0.00000, 60.6423, -35.2313, 3358.28, -136.631, 3114, 132.805, 2.45991, 116.269, 109.964, 9.2363, 88.2804, -80.0679
6, 900.00000, 60.7109, -34.7771, 3355.86, -136.645, 3112.63, 132.772, 2.49859, 116.762, 111.462, 9.22967, 88.8909, -80.099
6, 1800.00000, 60.7412, -34.5511, 3354.65, -136.653, 3111.97, 132.755, 2.51762, 117.007, 112.224, 9.22519, 89.1842, -80.116
6, 2700.00000, 60.7726, -34.3259, 3353.44, -136.66, 3111.31, 132.739, 2.53673, 117.252, 112.986, 9.22068, 89.4774, -80.133
7, 0.00000, 60.8052, -34.1012, 3352.23, -136.668, 3110.65, 132.723, 2.55591, 117.495, 113.748, 9.21613, 89.7705, -80.1499
7, 900.00000, 60.8389, -33.8772, 3351.02, -136.675, 3109.99, 132.706, 2.57518, 117.738, 114.509, 9.21155, 90.0634, -80.1669
7, 1800.00000, 61.0521, -34.6517, 3353.33, -136.634, 3110.38, 132.766, 2.5396, 116.224, 113.075, 8.71306, 88.6124, -80.7222
7, 2700.00000, 61.1571, -35.0061, 3354.49, -136.613, 3110.58, 132.797, 2.52339, 115.506, 112.42, 8.47004, 87.9304, -80.9946
8, 0.00000, 61.2674, -35.3598, 3355.56, -136.593, 3110.74, 132.825, 2.50745, 114.785, 111.763, 8.22196, 87.2501, -81.2743
8, 900.00000, 61.3812, -35.7123, 3356.62, -136.574, 3110.9, 132.854, 2.49169, 114.059, 111.109, 7.97054, 86.5722, -81.5589
8, 1800.00000, 61.4496, -35.997, 3357.61, -136.559, 3111.18, 132.878, 2.47731, 113.517, 110.543, 7.80022, 86.0525, -81.7495
8, 2700.00000, 61.5203, -36.2813, 3358.59, -136.544, 3111.46, 132.901, 2.46304, 112.973, 109.977, 7.62789, 85.5338, -81.9427
9, 0.00000, 61.5931, -36.5652, 3359.58, -136.529, 3111.74, 132.925, 2.44889, 112.425, 109.413, 7.45351, 85.0163, -82.1386
9, 900.00000, 61.6683, -36.8486, 3360.56, -136.514, 3112.02, 132.949, 2.43483, 111.875, 108.849, 7.27706, 84.5, -82.3373
9, 1800.00000, 61.6882, -36.9101, 3360.81, -136.51, 3112.1, 132.956, 2.43435, 111.781, 108.749, 7.25782, 84.4338, -82.3589
9, 2700.00000, 61.7083, -36.9715, 3361.06, -136.505, 3112.17, 132.962, 2.43388, 111.687, 108.649, 7.23855, 84.3676, -82.3806
10, 0.00000, 61.7285, -37.0329, 3361.31, -136.501, 3112.25, 132.969, 2.43341, 111.594, 108.549, 7.21924, 84.3014, -82.4023
10, 900.00000, 61.7489, -37.0943, 3361.56, -136.497, 3112.32, 132.976, 2.43295, 111.5, 108.449, 7.19989, 84.2353, -82.424
10, 1800.00000, 61.7574, -37.1901, 3361.94, -136.494, 3112.51, 132.983, 2.42679, 111.338, 108.183, 7.15735, 84.0592, -82.4698
10, 2700.00000, 61.7661, -37.2859, 3362.32, -136.49, 3112.71, 132.991, 2.42064, 111.175, 107.917, 7.11458, 83.8831, -82.5158
11, 0.00000, 61.7751, -37.3817, 3362.7, -136.486, 3112.9, 132.998, 2.4145, 111.012, 107.651, 7.07156, 83.7071, -82.5621
11, 900.00000, 61.7842, -37.4776, 3363.08, -136.482, 3113.09, 133.006, 2.40837, 110.849, 107.385, 7.02831, 83.5312, -82.6086
11, 1800.00000, 61.7772, -37.5342, 3363.33, -136.481, 3113.27, 133.01, 2.4044, 110.778, 107.204, 7.0207, 83.4397, -82.6147
11, 2700.00000, 61.7702, -37.5908, 3363.59, -136.48, 3113.46, 133.015, 2.40044, 110.707, 107.023, 7.01307, 83.3483, -82.6207
12, 0.00000, 61.7633, -37.6475, 3363.85, -136.478, 3113.65, 133.019, 2.39648, 110.636, 106.842, 7.0054, 83.2568, -82.6268
12, 900.00000, 61.7565, -37.7042, 3364.1, -136.477, 3113.83, 133.024, 2.39253, 110.564, 106.661, 6.9977, 83.1653, -82.633
12, 1800.00000, 61.7279, -37.6771, 3364.09, -136.479, 3113.92, 133.022, 2.39317, 110.658, 106.705, 7.04442, 83.2399, -82.5784
12, 2700.00000, 61.6994, -37.65, 3364.07, -136.481, 3114.01, 133.021, 2.39382, 110.752, 106.75, 7.0911, 83.3145, -82.5239
13, 0.00000, 61.671, -37.6229, 3364.05, -136.483, 3114.09, 133.019, 2.39447, 110.846, 106.794, 7.13773, 83.3892, -82.4696
13, 900.00000, 61.6425, -37.5957, 3364.04, -136.486, 3114.18, 133.018, 2.39512, 110.939, 106.838, 7.18433, 83.464, -82.4153
13, 1800.00000, 61.6254, -37.5532, 3363.83, -136.49, 3114.15, 133.012, 2.39648, 111.02, 106.873, 7.2083, 83.5217, -82.3888
13, 2700.00000, 61.6084, -37.5108, 3363.62, -136.493, 3114.11, 133.007, 2.39784, 111.1, 106.907, 7.23225, 83.5794, -82.3624
14, 0.00000, 61.5914, -37.4683, 3363.41, -136.497, 3114.08, 133.001, 2.39921, 111.18, 106.942, 7.25618, 83.6372, -82.336
14, 900.00000, 61.5746, -37.4257, 3363.2, -136.501, 3114.05, 132.995, 2.40058, 111.26, 106.977, 7.28009, 83.695, -82.3096
14, 1800.00000, 61.4859, -37.1255, 3362.22, -136.517, 3113.78, 132.97, 2.41397, 111.858, 107.586, 7.47948, 84.2564, -82.0843
14, 2700.00000, 61.3997, -36.8247, 3361.24, -136.533, 3113.5, 132.945, 2.42748, 112.452, 108.196, 7.67634, 84.8192, -81.8624
15, 0.00000, 61.3159, -36.5233, 3360.26, -136.548, 3113.23, 132.92, 2.4411, 113.043, 108.807, 7.87069, 85.3835, -81.6437
15, 900.00000, 61.2345, -36.2213, 3359.28, -136.564, 3112.96, 132.895, 2.45484, 113.632, 109.419, 8.06256, 85.9492, -81.4283
15, 1800.00000, 61.1859, -35.6976, 3357.19, -136.587, 3112, 132.851, 2.48518, 114.475, 110.603, 8.26519, 86.822, -81.2122
15, 2700.00000, 61.1441, -35.1787, 3355, -136.613, 3111.01, 132.804, 2.51586, 115.306, 111.783, 8.46072, 87.6951, -81.0042
16, 0.00000, 61.1028, -34.6294, 3352.82, -136.637, 3110.04, 132.758, 2.54674, 116.159, 112.965, 8.65214, 88.5699, -80.8006
16, 900.00000, 60.9473, -33.5925, 3349.43, -136.683, 3108.85, 132.681, 2.60693, 118.043, 115.279, 9.2171, 90.5528, -80.1773
16, 1800.00000, 61.1053, -33.041, 3346.57, -136.697, 3106.87, 132.637, 2.65868, 118.639, 117.018, 9.21824, 91.425, -80.1997
16, 2700.00000, 61.2699, -32.495, 3343.71, -136.712, 3104.9, 132.593, 2.71102, 119.227, 118.753, 9.21893, 92.296, -80.2225
17, 0.00000, 61.4407, -31.9544, 3340.86, -136.726, 3102.92, 132.549, 2.76395, 119.809, 120.486, 9.2192, 93.1658, -80.2457
17, 900.00000, 61.6178, -31.4195, 3338.01, -136.74, 3100.93, 132.505, 2.81748, 120.383, 122.215, 9.21908, 94.0344, -80.2693
17, 1800.00000, 61.6609, -31.2976, 3337.38, -136.743, 3100.47, 132.494, 2.82959, 120.514, 122.613, 9.2194, 94.2391, -80.2736
17, 2700.00000, 61.7042, -31.176, 3336.74, -136.746, 3100, 132.484, 2.84168, 120.644, 123.01, 9.2197, 94.4436, -80.2779
18, 0.00000, 61.7478, -31.0547, 3336.11, -136.749, 3099.54, 132.474, 2.85381, 120.775, 123.408, 9.21998, 94.6481, -80.2822
18, 900.00000, 61.7918, -30.9337, 3335.48, -136.752, 3099.07, 132.464, 2.86597, 120.904, 123.805, 9.22024, 94.8525, -80.2866
18, 1800.00000, 61.767, -31.0316, 3336.04, -136.749, 3099.39, 132.472, 2.85612, 120.8, 123.468, 9.22224, 94.7148, -80.2789
18, 2700.00000, 61.7425, -31.1297, 3336.59, -136.745, 3099.71, 132.479, 2.84627, 120.695, 123.131, 9.22424, 94.577, -80.2711
19, 0.00000, 61.7181, -31.228, 3337.15, -136.742, 3100.02, 132.487, 2.83643, 120.59, 122.794, 9.22623, 94.4392, -80.2634
19, 900.00000, 61.694, -31.3264, 3337.71, -136.739, 3100.34, 132.495, 2.82662, 120.485, 122.457, 9.22822, 94.3013, -80.2557
19, 1800.00000, 61.6553, -31.4763, 3338.53, -136.734, 3100.83, 132.506, 2.81195, 120.325, 121.945, 9.23066, 94.0842, -80.2452
19, 2700.00000, 61.617, -31.6266, 3339.36, -136.729, 3101.33, 132.518, 2.79733, 120.163, 121.433, 9.23308, 93.8669, -80.2348
20, 0.00000, 61.5793, -31.7774, 3340.19, -136.724, 3101.83, 132.53, 2.78274, 120.002, 120.921, 9.23549, 93.6496, -80.2244
20, 900.00000, 61.542, -31.9284, 3341.02, -136.72, 3102.32, 132.542, 2.7682, 119.84, 120.408, 9.23787, 93.4322, -80.214
20, 1800.00000, 61.4738, -32.1967, 3342.48, -136.712, 3103.22, 132.563, 2.74266, 119.552, 119.505, 9.24129, 93.0379, -80.1971
20, 2700.00000, 61.4071, -32.4662, 3343.93, -136.703, 3104.12, 132.584, 2.71725, 119.262, 118.601, 9.24464, 92.6433, -80.1802
21, 0.00000, 61.3421, -32.7368, 3345.39, -136.695, 3105.01, 132.605, 2.69197, 118.971, 117.696, 9.24792, 92.2484, -80.1634
21, 900.00000, 61.2786, -33.0086, 3346.84, -136.687, 3105.91, 132.626, 2.66682, 118.678, 116.79, 9.25113, 91.8533, -80.1466
21, 1800.00000, 61.1878, -33.3925, 3348.89, -136.676, 3107.19, 132.655, 2.63134, 118.264, 115.528, 9.2547, 91.2889, -80.124
21, 2700.00000, 61.1001, -33.7786, 3350.95, -136.665, 3108.47, 132.685, 2.59612, 117.847, 114.265, 9.2581, 90.7241, -80.1015
22, 0.00000, 61.0158, -34.1671, 3353, -136.653, 3109.75, 132.715, 2.56116, 117.426, 113, 9.26134, 90.1586, -80.079
22, 900.00000, 60.9348, -34.5578, 3355.06, -136.642, 3111.03, 132.745, 2.52645, 117.003, 111.734, 9.26441, 89.5927, -80.0567
22, 1800.00000, 60.8515, -34.9564, 3357.15, -136.63, 3112.34, 132.776, 2.49113, 116.57, 110.46, 9.26645, 89.0092, -80.0351
22, 2700.00000, 60.7717, -35.3574, 3359.24, -136.619, 3113.66, 132.807, 2.45606, 116.134, 109.185, 9.26827, 88.4252, -80.0137
23, 0.00000, 60.6955, -35.7606, 3361.34, -136.607, 3114.98, 132.838, 2.42126, 115.695, 107.909, 9.26988, 87.8406, -79.9923
23, 900.00000, 60.6228, -36.1661, 3363.44, -136.596, 3116.29, 132.869, 2.38672, 115.253, 106.631, 9.27127, 87.2554, -79.9711
23, 1800.00000, 60.5717, -36.4319, 3364.82, -136.589, 3117.18, 132.889, 2.36366, 114.962, 105.816, 9.27094, 86.8636, -79.9583
23, 2700.00000, 60.5221, -36.6987, 3366.2, -136.581, 3118.06, 132.91, 2.34072, 114.671, 105, 9.27051, 86.4715, -79.9455
24, 0.00000, 60.4741, -36.9665, 3367.58, -136.574, 3118.94, 132.93, 2.31789, 114.378, 104.184, 9.26996, 86.0792, -79.9328
