hour,t(sec),V1,VAngle1,V2,VAngle2,V3,VAngle3,I1,IAngle1,I2,IAngle2,I3,IAngle3
0, 900.00000, 2273.85, -8.5823, 2382.89, -127.004, 2337.46, 112.765, 371.26, 159.94, 356.874, 41.5173, 363.735, -78.7131
0, 1800.00000, 2274.57, -8.56908, 2383.25, -126.996, 2338.03, 112.776, 371.682, 159.923, 357.128, 41.4938, 364.032, -78.7333
0, 2700.00000, 2275.48, -8.5547, 2383.97, -126.986, 2339, 112.793, 371.845, 159.938, 357.042, 41.5038, 363.898, -78.7162
1, 0.00000, 2276.37, -8.54053, 2384.72, -126.976, 2339.98, 112.811, 372.005, 159.952, 356.93, 41.5141, 363.744, -78.6983
1, 900.00000, 2277.27, -8.52638, 2385.47, -126.965, 2340.95, 112.829, 372.166, 159.966, 356.816, 41.5245, 363.59, -78.6805
1, 1800.00000, 2277.71, -8.51864, 2385.84, -126.961, 2341.57, 112.84, 372.243, 159.974, 356.732, 41.5291, 363.474, -78.669
1, 2700.00000, 2278.16, -8.51066, 2386.19, -126.957, 2342.19, 112.85, 372.323, 159.982, 356.677, 41.5332, 363.378, -78.6582
2, 0.00000, 2278.61, -8.50266, 2386.53, -126.953, 2342.8, 112.861, 372.403, 159.991, 356.625, 41.5371, 363.282, -78.6474
2, 900.00000, 2279.05, -8.49465, 2386.87, -126.95, 2343.42, 112.872, 372.482, 159.999, 356.573, 41.5411, 363.186, -78.6367
2, 1800.00000, 2279.22, -8.49163, 2387.03, -126.948, 2343.68, 112.877, 372.51, 160.002, 356.535, 41.5429, 363.123, -78.6315
2, 2700.00000, 2279.39, -8.48856, 2387.17, -126.946, 2343.93, 112.881, 372.541, 160.005, 356.512, 41.5445, 363.083, -78.6272
3, 0.00000, 2279.56, -8.48548, 2387.31, -126.945, 2344.17, 112.885, 372.571, 160.008, 356.491, 41.5461, 363.045, -78.6228
3, 900.00000, 2279.73, -8.4824, 2387.45, -126.943, 2344.41, 112.89, 372.602, 160.011, 356.469, 41.5477, 363.007, -78.6184
3, 1800.00000, 2279.13, -8.49068, 2387, -126.951, 2343.98, 112.882, 372.493, 160.003, 356.496, 41.5404, 363.039, -78.6257
3, 2700.00000, 2278.55, -8.49863, 2386.49, -126.959, 2343.53, 112.874, 372.389, 159.995, 356.569, 41.5322, 363.11, -78.6343
4, 0.00000, 2277.97, -8.50654, 2385.98, -126.967, 2343.08, 112.865, 372.284, 159.987, 356.647, 41.524, 363.181, -78.643
4, 900.00000, 2277.38, -8.51444, 2385.47, -126.975, 2342.63, 112.857, 372.18, 159.979, 356.724, 41.5158, 363.252, -78.6516
4, 1800.00000, 2275.74, -8.53744, 2384.03, -126.997, 2341.24, 112.83, 371.884, 159.956, 356.95, 41.4936, 363.48, -78.6781
4, 2700.00000, 2274.1, -8.56049, 2382.6, -127.019, 2339.85, 112.804, 371.589, 159.932, 357.168, 41.4713, 363.7, -78.7045
5, 0.00000, 2272.45, -8.58355, 2381.16, -127.041, 2338.46, 112.778, 371.295, 159.909, 357.387, 41.4489, 363.919, -78.731
5, 900.00000, 2270.8, -8.6066, 2379.73, -127.063, 2337.07, 112.752, 371, 159.885, 357.606, 41.4264, 364.139, -78.7574
5, 1800.00000, 2267.62, -8.64998, 2376.9, -127.107, 2334.56, 112.704, 370.427, 159.841, 358.009, 41.3819, 364.529, -78.8056
5, 2700.00000, 2264.43, -8.69304, 2374.04, -127.152, 2332.05, 112.656, 369.857, 159.798, 358.446, 41.3362, 364.928, -78.8546
6, 0.00000, 2261.24, -8.73609, 2371.18, -127.197, 2329.54, 112.608, 369.286, 159.754, 358.886, 41.2905, 365.328, -78.9035
6, 900.00000, 2258.05, -8.77914, 2368.31, -127.242, 2327.03, 112.559, 368.715, 159.71, 359.327, 41.2448, 365.729, -78.9526
6, 1800.00000, 2256.43, -8.8001, 2366.82, -127.266, 2325.84, 112.536, 368.429, 159.688, 359.586, 41.22, 365.932, -78.977
6, 2700.00000, 2254.81, -8.82137, 2365.36, -127.29, 2324.65, 112.512, 368.14, 159.667, 359.812, 41.1962, 366.122, -79.0006
7, 0.00000, 2253.2, -8.84264, 2363.9, -127.313, 2323.45, 112.489, 367.85, 159.645, 360.037, 41.1725, 366.314, -79.0242
7, 900.00000, 2251.58, -8.86392, 2362.44, -127.336, 2322.26, 112.466, 367.56, 159.623, 360.263, 41.1487, 366.506, -79.0478
7, 1800.00000, 2256.71, -8.66452, 2361.44, -127.275, 2324.89, 112.496, 368.496, 159.822, 360.43, 41.2094, 366.161, -79.0183
7, 2700.00000, 2258.83, -8.57806, 2361.07, -127.248, 2326.12, 112.515, 368.88, 159.909, 360.496, 41.2369, 365.935, -78.9995
8, 0.00000, 2260.92, -8.4939, 2360.68, -127.221, 2327.26, 112.531, 369.258, 159.993, 360.556, 41.2633, 365.754, -78.9839
8, 900.00000, 2262.99, -8.4099, 2360.28, -127.195, 2328.41, 112.546, 369.634, 160.077, 360.617, 41.2897, 365.575, -78.9682
8, 1800.00000, 2264.8, -8.34371, 2360.23, -127.173, 2329.58, 112.564, 369.962, 160.143, 360.631, 41.3121, 365.389, -78.9509
8, 2700.00000, 2266.6, -8.27774, 2360.19, -127.15, 2330.74, 112.581, 370.288, 160.209, 360.636, 41.3347, 365.207, -78.9337
9, 0.00000, 2268.4, -8.21187, 2360.16, -127.127, 2331.9, 112.598, 370.612, 160.275, 360.642, 41.3573, 365.025, -78.9163
9, 900.00000, 2270.18, -8.14611, 2360.12, -127.105, 2333.06, 112.615, 370.936, 160.341, 360.647, 41.3799, 364.843, -78.899
9, 1800.00000, 2270.9, -8.11641, 2359.91, -127.098, 2333.54, 112.621, 371.066, 160.371, 360.666, 41.387, 364.783, -78.8937
9, 2700.00000, 2271.62, -8.08645, 2359.68, -127.091, 2334.05, 112.626, 371.195, 160.401, 360.699, 41.3936, 364.705, -78.8881
10, 0.00000, 2272.33, -8.05647, 2359.46, -127.085, 2334.57, 112.632, 371.323, 160.431, 360.733, 41.4001, 364.625, -78.8825
10, 900.00000, 2273.04, -8.02652, 2359.23, -127.078, 2335.08, 112.638, 371.451, 160.461, 360.768, 41.4065, 364.545, -78.8768
10, 1800.00000, 2273.5, -8.01349, 2359.39, -127.074, 2335.58, 112.646, 371.536, 160.474, 360.769, 41.4108, 364.459, -78.8689
10, 2700.00000, 2273.97, -8.00088, 2359.57, -127.069, 2336.05, 112.653, 371.621, 160.486, 360.742, 41.4159, 364.382, -78.8609
11, 0.00000, 2274.45, -7.98831, 2359.76, -127.064, 2336.51, 112.661, 371.706, 160.499, 360.712, 41.4211, 364.309, -78.8531
11, 900.00000, 2274.92, -7.97575, 2359.95, -127.059, 2336.98, 112.669, 371.791, 160.512, 360.683, 41.4263, 364.235, -78.8452
11, 1800.00000, 2275.25, -7.96832, 2360.14, -127.056, 2337.41, 112.676, 371.85, 160.519, 360.653, 41.429, 364.165, -78.8381
11, 2700.00000, 2275.58, -7.96089, 2360.33, -127.054, 2337.84, 112.683, 371.909, 160.527, 360.624, 41.4318, 364.097, -78.8311
12, 0.00000, 2275.92, -7.95347, 2360.51, -127.051, 2338.27, 112.69, 371.969, 160.534, 360.594, 41.4345, 364.03, -78.8241
12, 900.00000, 2276.25, -7.94606, 2360.7, -127.048, 2338.7, 112.697, 372.028, 160.542, 360.565, 41.4373, 363.963, -78.8171
12, 1800.00000, 2275.93, -7.96095, 2361.11, -127.048, 2338.79, 112.705, 371.968, 160.527, 360.515, 41.437, 363.92, -78.8091
12, 2700.00000, 2275.62, -7.97624, 2361.54, -127.048, 2338.84, 112.712, 371.912, 160.512, 360.45, 41.4375, 363.909, -78.8018
13, 0.00000, 2275.31, -7.99156, 2361.97, -127.047, 2338.88, 112.719, 371.856, 160.496, 360.385, 41.4381, 363.901, -78.7946
13, 900.00000, 2275, -8.00689, 2362.4, -127.047, 2338.92, 112.726, 371.8, 160.481, 360.319, 41.4387, 363.894, -78.7874
13, 1800.00000, 2274.25, -8.03663, 2362.66, -127.054, 2338.6, 112.726, 371.663, 160.451, 360.266, 41.4318, 363.922, -78.7877
13, 2700.00000, 2273.51, -8.06636, 2362.91, -127.061, 2338.27, 112.725, 371.528, 160.422, 360.227, 41.4248, 363.973, -78.7888
14, 0.00000, 2272.76, -8.09611, 2363.15, -127.068, 2337.93, 112.724, 371.392, 160.392, 360.19, 41.4178, 364.025, -78.7898
14, 900.00000, 2272.01, -8.12587, 2363.4, -127.075, 2337.59, 112.723, 371.257, 160.362, 360.152, 41.4108, 364.078, -78.7909
14, 1800.00000, 2270.37, -8.19065, 2363.59, -127.094, 2336.39, 112.704, 370.959, 160.298, 360.11, 41.3915, 364.268, -78.8092
14, 2700.00000, 2268.73, -8.25529, 2363.77, -127.114, 2335.19, 112.686, 370.661, 160.233, 360.083, 41.3717, 364.455, -78.8276
15, 0.00000, 2267.07, -8.32002, 2363.94, -127.134, 2334, 112.668, 370.362, 160.168, 360.057, 41.3519, 364.642, -78.8459
15, 900.00000, 2265.41, -8.38485, 2364.12, -127.153, 2332.8, 112.649, 370.062, 160.103, 360.03, 41.3321, 364.829, -78.8642
15, 1800.00000, 2261.99, -8.4915, 2363.31, -127.197, 2330.02, 112.602, 369.44, 159.996, 360.136, 41.289, 365.246, -78.9114
15, 2700.00000, 2256.97, -8.65805, 2363.67, -127.24, 2326.75, 112.572, 368.533, 159.83, 360.106, 41.2453, 365.738, -78.9418
16, 0.00000, 2254.2, -8.73941, 2362.17, -127.286, 2324.05, 112.51, 368.037, 159.748, 360.304, 41.1987, 366.197, -79.0037
16, 900.00000, 2249.53, -8.89341, 2360.55, -127.364, 2320.29, 112.428, 367.192, 159.594, 360.551, 41.1204, 366.774, -79.0856
16, 1800.00000, 2245.91, -8.94971, 2357.46, -127.407, 2316.41, 112.357, 366.54, 159.537, 361, 41.0778, 367.403, -79.1566
16, 2700.00000, 2242.28, -9.00559, 2354.32, -127.45, 2312.56, 112.287, 365.891, 159.48, 361.487, 41.0335, 368.023, -79.2281
17, 0.00000, 2238.65, -9.0615, 2351.19, -127.494, 2308.7, 112.216, 365.242, 159.423, 361.977, 40.9892, 368.645, -79.2998
17, 900.00000, 2235.01, -9.11747, 2348.05, -127.537, 2304.84, 112.145, 364.591, 159.366, 362.469, 40.9448, 369.269, -79.3715
17, 1800.00000, 2234.21, -9.13014, 2347.37, -127.546, 2303.92, 112.128, 364.455, 159.353, 362.593, 40.9348, 369.413, -79.389
17, 2700.00000, 2233.42, -9.14304, 2346.71, -127.555, 2302.99, 112.111, 364.313, 159.34, 362.698, 40.926, 369.564, -79.406
18, 0.00000, 2232.62, -9.15597, 2346.05, -127.563, 2302.05, 112.095, 364.172, 159.327, 362.802, 40.9172, 369.716, -79.423
18, 900.00000, 2231.83, -9.16891, 2345.39, -127.572, 2301.11, 112.078, 364.03, 159.313, 362.906, 40.9085, 369.868, -79.4401
18, 1800.00000, 2232.61, -9.15826, 2345.97, -127.562, 2301.62, 112.086, 364.175, 159.324, 362.908, 40.9179, 369.868, -79.4322
18, 2700.00000, 2233.37, -9.14824, 2346.65, -127.551, 2302.19, 112.097, 364.31, 159.334, 362.808, 40.9289, 369.777, -79.4211
19, 0.00000, 2234.13, -9.13831, 2347.34, -127.54, 2302.75, 112.109, 364.446, 159.344, 362.7, 40.9402, 369.685, -79.4098
19, 900.00000, 2234.89, -9.12839, 2348.04, -127.529, 2303.31, 112.12, 364.582, 159.354, 362.591, 40.9514, 369.592, -79.3986
19, 1800.00000, 2236, -9.11302, 2349, -127.514, 2304.22, 112.137, 364.782, 159.37, 362.461, 40.9666, 369.465, -79.3815
19, 2700.00000, 2237.11, -9.09778, 2349.99, -127.499, 2305.14, 112.154, 364.981, 159.386, 362.307, 40.9821, 369.316, -79.3637
20, 0.00000, 2238.21, -9.08257, 2350.98, -127.483, 2306.06, 112.172, 365.179, 159.401, 362.152, 40.9977, 369.167, -79.3459
20, 900.00000, 2239.32, -9.06736, 2351.98, -127.468, 2306.97, 112.189, 365.377, 159.416, 361.997, 41.0132, 369.017, -79.3281
20, 1800.00000, 2241.22, -9.04058, 2353.71, -127.442, 2308.68, 112.222, 365.719, 159.443, 361.69, 41.0396, 368.71, -79.2948
20, 2700.00000, 2243.14, -9.01351, 2355.4, -127.416, 2310.37, 112.254, 366.062, 159.471, 361.426, 41.0655, 368.437, -79.2624
21, 0.00000, 2245.05, -8.98643, 2357.09, -127.391, 2312.07, 112.286, 366.404, 159.498, 361.163, 41.0914, 368.163, -79.2301
21, 900.00000, 2246.96, -8.95935, 2358.78, -127.366, 2313.76, 112.318, 366.746, 159.526, 360.9, 41.1173, 367.89, -79.1978
21, 1800.00000, 2249.63, -8.921, 2361.12, -127.331, 2316.17, 112.363, 367.226, 159.565, 360.551, 41.1527, 367.509, -79.1522
21, 2700.00000, 2252.3, -8.88278, 2363.48, -127.295, 2318.59, 112.409, 367.704, 159.604, 360.186, 41.1885, 367.121, -79.1062
22, 0.00000, 2254.97, -8.84459, 2365.83, -127.26, 2321, 112.454, 368.181, 159.643, 359.822, 41.2242, 366.733, -79.0602
22, 900.00000, 2257.64, -8.80641, 2368.18, -127.225, 2323.41, 112.499, 368.658, 159.681, 359.459, 41.26, 366.346, -79.0143
22, 1800.00000, 2260.33, -8.76751, 2370.55, -127.19, 2325.9, 112.546, 369.139, 159.721, 359.094, 41.2957, 365.95, -78.9671
22, 2700.00000, 2263.02, -8.72862, 2372.92, -127.155, 2328.39, 112.593, 369.62, 159.76, 358.729, 41.3314, 365.553, -78.9199
23, 0.00000, 2265.7, -8.68975, 2375.29, -127.12, 2330.88, 112.639, 370.101, 159.8, 358.366, 41.3671, 365.157, -78.8728
23, 900.00000, 2268.39, -8.65089, 2377.65, -127.085, 2333.36, 112.686, 370.581, 159.839, 358.003, 41.4027, 364.763, -78.8257
23, 1800.00000, 2270.14, -8.62552, 2379.23, -127.062, 2335.02, 112.717, 370.892, 159.865, 357.746, 41.4264, 364.491, -78.7937
23, 2700.00000, 2271.89, -8.59998, 2380.78, -127.039, 2336.68, 112.748, 371.205, 159.891, 357.508, 41.4496, 364.229, -78.7623
24, 0.00000, 2273.64, -8.57445, 2382.33, -127.016, 2338.33, 112.779, 371.518, 159.917, 357.272, 41.4727, 363.967, -78.7309
