hour,t(sec),V1,VAngle1,I1,IAngle1
0, 900.00000, 2471.69, -3.22737, 48.4896, 150.172
0, 1800.00000, 2472.88, -3.20815, 48.1386, 150.191
0, 2700.00000, 2474.09, -3.18882, 47.7862, 150.211
1, 0.00000, 2475.29, -3.1695, 47.4338, 150.231
1, 900.00000, 2476.51, -3.14975, 47.0795, 150.251
1, 1800.00000, 2477.1, -3.13965, 46.9096, 150.261
1, 2700.00000, 2477.68, -3.12946, 46.7387, 150.271
2, 0.00000, 2478.27, -3.11928, 46.5678, 150.282
2, 900.00000, 2478.86, -3.1091, 46.3969, 150.292
2, 1800.00000, 2479.09, -3.10518, 46.3301, 150.296
2, 2700.00000, 2479.31, -3.10128, 46.2638, 150.3
3, 0.00000, 2479.53, -3.09739, 46.1974, 150.304
3, 900.00000, 2479.76, -3.09349, 46.1311, 150.308
3, 1800.00000, 2478.97, -3.10524, 46.3633, 150.296
3, 2700.00000, 2478.17, -3.11707, 46.5968, 150.284
4, 0.00000, 2477.38, -3.1289, 46.8303, 150.272
4, 900.00000, 2476.59, -3.14073, 47.0638, 150.26
4, 1800.00000, 2474.36, -3.17439, 47.7181, 150.225
4, 2700.00000, 2472.13, -3.20817, 48.3743, 150.191
5, 0.00000, 2469.9, -3.24197, 49.0307, 150.156
5, 900.00000, 2467.67, -3.27578, 49.6872, 150.122
5, 1800.00000, 2463.31, -3.34078, 50.9706, 150.056
5, 2700.00000, 2458.98, -3.40521, 52.2501, 149.99
6, 0.00000, 2454.64, -3.46975, 53.531, 149.924
6, 900.00000, 2450.31, -3.53443, 54.8129, 149.858
6, 1800.00000, 2448.11, -3.56662, 55.4592, 149.825
6, 2700.00000, 2462.1, -3.5791, 56.0816, 149.813
7, 0.00000, 2459.91, -3.61106, 56.7272, 149.78
7, 900.00000, 2457.71, -3.64328, 57.3771, 149.747
7, 1800.00000, 2464.01, -3.3906, 53.1633, 147.7
7, 2700.00000, 2466.65, -3.28283, 51.4905, 146.755
8, 0.00000, 2469.26, -3.17643, 49.8351, 145.74
8, 900.00000, 2471.8, -3.07122, 48.2107, 144.65
8, 1800.00000, 2474.14, -2.98506, 46.6232, 143.555
8, 2700.00000, 2476.46, -2.8991, 45.0608, 142.379
9, 0.00000, 2478.77, -2.81331, 43.5254, 141.116
9, 900.00000, 2480.84, -2.73392, 42.0175, 139.75
9, 1800.00000, 2481.69, -2.69754, 41.577, 139.306
9, 2700.00000, 2482.54, -2.66114, 41.1396, 138.852
10, 0.00000, 2483.39, -2.62476, 40.7057, 138.388
10, 900.00000, 2484.23, -2.58841, 40.2754, 137.914
10, 1800.00000, 2484.77, -2.57508, 40.3089, 138.056
10, 2700.00000, 2485.31, -2.56177, 40.3426, 138.197
11, 0.00000, 2485.85, -2.54846, 40.3764, 138.338
11, 900.00000, 2486.39, -2.53516, 40.4104, 138.479
11, 1800.00000, 2486.78, -2.52748, 40.4249, 138.589
11, 2700.00000, 2487.17, -2.5198, 40.4395, 138.698
12, 0.00000, 2487.56, -2.51212, 40.4543, 138.808
12, 900.00000, 2487.94, -2.50445, 40.4692, 138.917
12, 1800.00000, 2487.57, -2.52468, 40.7552, 139.261
12, 2700.00000, 2487.19, -2.54497, 41.0434, 139.6
13, 0.00000, 2486.81, -2.56526, 41.3333, 139.934
13, 900.00000, 2486.44, -2.58557, 41.625, 140.263
13, 1800.00000, 2485.49, -2.62451, 42.293, 140.909
13, 2700.00000, 2484.54, -2.66351, 42.968, 141.533
14, 0.00000, 2483.59, -2.70254, 43.6492, 142.138
14, 900.00000, 2482.64, -2.7416, 44.3365, 142.722
14, 1800.00000, 2480.61, -2.82218, 45.5609, 143.679
14, 2700.00000, 2478.56, -2.90298, 46.8029, 144.583
15, 0.00000, 2476.51, -2.98391, 48.0607, 145.436
15, 900.00000, 2474.44, -3.065, 49.3332, 146.242
15, 1800.00000, 2470.1, -3.19967, 51.5117, 147.254
15, 2700.00000, 2463.26, -3.43339, 57.243, 149.958
16, 0.00000, 2459.98, -3.52374, 57.7183, 149.867
16, 900.00000, 2454.73, -3.69192, 58.1983, 149.698
16, 1800.00000, 2449.87, -3.76847, 59.6265, 149.62
16, 2700.00000, 2444.99, -3.84517, 61.0567, 149.542
17, 0.00000, 2454.83, -3.94263, 62.4575, 149.443
17, 900.00000, 2450.17, -4.01334, 63.8837, 149.371
17, 1800.00000, 2465.44, -4.00796, 64.1598, 149.377
17, 2700.00000, 2464.39, -4.02469, 64.4617, 149.36
18, 0.00000, 2463.32, -4.0418, 64.7696, 149.342
18, 900.00000, 2462.25, -4.05891, 65.0775, 149.325
18, 1800.00000, 2463.28, -4.04422, 64.7782, 149.34
18, 2700.00000, 2464.32, -4.02922, 64.4741, 149.355
19, 0.00000, 2465.37, -4.01423, 64.1699, 149.371
19, 900.00000, 2466.41, -3.99923, 63.8657, 149.386
19, 1800.00000, 2467.92, -3.97698, 63.4256, 149.409
19, 2700.00000, 2469.44, -3.95467, 62.9844, 149.431
20, 0.00000, 2470.95, -3.93237, 62.5432, 149.454
20, 900.00000, 2472.51, -3.9094, 62.098, 149.477
20, 1800.00000, 2475.48, -3.8716, 61.3379, 149.516
20, 2700.00000, 2478.12, -3.83199, 60.5781, 149.556
21, 0.00000, 2480.72, -3.79292, 59.8197, 149.596
21, 900.00000, 2483.31, -3.75422, 59.0658, 149.636
21, 1800.00000, 2471.75, -3.68559, 58.027, 149.705
21, 2700.00000, 2475.36, -3.63121, 56.9675, 149.76
22, 0.00000, 2478.97, -3.57672, 55.9067, 149.816
22, 900.00000, 2482.59, -3.52183, 54.8453, 149.872
22, 1800.00000, 2486.22, -3.46677, 53.7766, 149.928
22, 2700.00000, 2475.07, -3.39281, 52.7298, 150.002
23, 0.00000, 2478.66, -3.33789, 51.6622, 150.058
23, 900.00000, 2482.03, -3.28956, 50.5934, 150.108
23, 1800.00000, 2468.28, -3.27116, 49.9187, 150.126
23, 2700.00000, 2470.61, -3.23529, 49.2248, 150.163
24, 0.00000, 2472.95, -3.19912, 48.526, 150.2
