hour,t(sec),"P1 (kW)","Q1 (kvar)","P2 (kW)","Q2 (kvar)","P3 (kW)","Q3 (kvar)"
0, 900.00000, -2.69435E-12, -6.70742E-12, 4.54357E-12, 1.04515E-12, -5.81437E-12, 1.81395E-12
0, 1800.00000, -0.684447, -0.684476, -0.632481, -0.632484, -0.607382, -0.607386
0, 2700.00000, -0.679828, -0.679862, -0.627879, -0.627884, -0.603162, -0.603168
1, 0.00000, -0.675205, -0.675238, -0.623274, -0.62328, -0.598939, -0.598944
1, 900.00000, -0.670572, -0.670605, -0.618666, -0.618671, -0.594708, -0.594714
1, 1800.00000, -0.65768, -0.657684, -0.613784, -0.613784, -0.590518, -0.590516
1, 2700.00000, -0.655126, -0.655123, -0.611223, -0.611223, -0.588211, -0.58821
2, 0.00000, -0.652564, -0.652561, -0.608661, -0.608661, -0.585902, -0.585901
2, 900.00000, -0.65, -0.649996, -0.606098, -0.606098, -0.583591, -0.58359
2, 1800.00000, -0.647243, -0.647241, -0.603466, -0.603466, -0.581116, -0.581116
2, 2700.00000, -0.646308, -0.646307, -0.602534, -0.602534, -0.580278, -0.580277
3, 0.00000, -0.645373, -0.645372, -0.601601, -0.601601, -0.579439, -0.579438
3, 900.00000, -0.644438, -0.644437, -0.600668, -0.600668, -0.578599, -0.578598
3, 1800.00000, -0.642989, -0.642994, -0.599518, -0.59952, -0.577445, -0.577445
3, 2700.00000, -0.645734, -0.645738, -0.602277, -0.602278, -0.580055, -0.580055
4, 0.00000, -0.648474, -0.648479, -0.605034, -0.605035, -0.582662, -0.582662
4, 900.00000, -0.651212, -0.651216, -0.607789, -0.60779, -0.585268, -0.585268
4, 1800.00000, -0.653211, -0.653223, -0.610229, -0.610232, -0.587438, -0.587438
4, 2700.00000, -0.660985, -0.660996, -0.61807, -0.618073, -0.594803, -0.594803
5, 0.00000, -0.668729, -0.668739, -0.625898, -0.625901, -0.602151, -0.602151
5, 900.00000, -0.676443, -0.676452, -0.633713, -0.633715, -0.609481, -0.609482
5, 1800.00000, -0.683023, -0.683024, -0.641011, -0.641011, -0.616237, -0.616237
5, 2700.00000, -0.697165, -0.697166, -0.655447, -0.655447, -0.629849, -0.629849
6, 0.00000, -0.711198, -0.711199, -0.669833, -0.669833, -0.643403, -0.643403
6, 900.00000, -0.725121, -0.725122, -0.68417, -0.68417, -0.656899, -0.656899
6, 1800.00000, -0.740178, -0.740181, -0.699005, -0.699006, -0.67104, -0.67104
6, 2700.00000, -0.747074, -0.747076, -0.706157, -0.706158, -0.677799, -0.677799
7, 0.00000, -0.753941, -0.753943, -0.713296, -0.713296, -0.684543, -0.684543
7, 900.00000, -0.760781, -0.760782, -0.720422, -0.720422, -0.691274, -0.691274
7, 1800.00000, -0.772484, -0.772484, -0.727106, -0.727106, -0.700362, -0.700362
7, 2700.00000, -0.774609, -0.774609, -0.727296, -0.727296, -0.701657, -0.701657
8, 0.00000, -0.776695, -0.776695, -0.727465, -0.727465, -0.702935, -0.702935
8, 900.00000, -0.778775, -0.778775, -0.727636, -0.727636, -0.704215, -0.704215
8, 1800.00000, -0.780707, -0.780707, -0.728017, -0.728017, -0.705478, -0.705478
8, 2700.00000, -0.780847, -0.780847, -0.726735, -0.726735, -0.705128, -0.705128
9, 0.00000, -0.780978, -0.780978, -0.725455, -0.725455, -0.704777, -0.704777
9, 900.00000, -0.781101, -0.781101, -0.724178, -0.724178, -0.704425, -0.704425
9, 1800.00000, -0.780434, -0.780434, -0.722909, -0.72291, -0.703679, -0.703679
9, 2700.00000, -0.780678, -0.780678, -0.72249, -0.72249, -0.703755, -0.703755
10, 0.00000, -0.780921, -0.780921, -0.722071, -0.722072, -0.703831, -0.703831
10, 900.00000, -0.781163, -0.781162, -0.721653, -0.721653, -0.703908, -0.703908
10, 1800.00000, -0.781278, -0.781278, -0.721473, -0.721473, -0.703938, -0.703938
10, 2700.00000, -0.779904, -0.779903, -0.719917, -0.719917, -0.702625, -0.702625
11, 0.00000, -0.778527, -0.778527, -0.71836, -0.718361, -0.701311, -0.701311
11, 900.00000, -0.777149, -0.777149, -0.716804, -0.716804, -0.699995, -0.699995
11, 1800.00000, -0.775668, -0.775668, -0.71526, -0.71526, -0.698649, -0.698649
11, 2700.00000, -0.774106, -0.774106, -0.713644, -0.713644, -0.69723, -0.69723
12, 0.00000, -0.772544, -0.772543, -0.712027, -0.712027, -0.695811, -0.69581
12, 900.00000, -0.77098, -0.770979, -0.71041, -0.71041, -0.69439, -0.69439
12, 1800.00000, -0.768963, -0.768963, -0.708975, -0.708975, -0.69273, -0.69273
12, 2700.00000, -0.76782, -0.76782, -0.708346, -0.708346, -0.691856, -0.691856
13, 0.00000, -0.766677, -0.766678, -0.707717, -0.707716, -0.690983, -0.690983
13, 900.00000, -0.765535, -0.765536, -0.707087, -0.707087, -0.69011, -0.690109
13, 1800.00000, -0.764079, -0.764079, -0.706406, -0.706405, -0.689028, -0.689028
13, 2700.00000, -0.763342, -0.763342, -0.70639, -0.70639, -0.688596, -0.688596
14, 0.00000, -0.762604, -0.762605, -0.706375, -0.706375, -0.688165, -0.688165
14, 900.00000, -0.761866, -0.761866, -0.706361, -0.706361, -0.687734, -0.687734
14, 1800.00000, -0.76049, -0.760492, -0.706383, -0.706383, -0.686839, -0.686839
14, 2700.00000, -0.760198, -0.7602, -0.707419, -0.707419, -0.686926, -0.686926
15, 0.00000, -0.7599, -0.759902, -0.708457, -0.708456, -0.687012, -0.687012
15, 900.00000, -0.759595, -0.759597, -0.709497, -0.709496, -0.687098, -0.687098
15, 1800.00000, -0.75794, -0.75794, -0.71019, -0.71019, -0.686312, -0.686312
15, 2700.00000, -0.761523, -0.761523, -0.717607, -0.717607, -0.690863, -0.690863
16, 0.00000, -0.766559, -0.76656, -0.723808, -0.723808, -0.695926, -0.695926
16, 900.00000, -0.770218, -0.770218, -0.730159, -0.730159, -0.70027, -0.70027
16, 1800.00000, -0.7743, -0.7743, -0.735594, -0.735594, -0.704639, -0.704639
16, 2700.00000, -0.790824, -0.790824, -0.7529, -0.7529, -0.720355, -0.720355
17, 0.00000, -0.807196, -0.807195, -0.770141, -0.770141, -0.735968, -0.735968
17, 900.00000, -0.823417, -0.823416, -0.787315, -0.787315, -0.751477, -0.751478
17, 1800.00000, -0.842085, -0.842083, -0.805553, -0.805553, -0.768627, -0.768627
17, 2700.00000, -0.845769, -0.845766, -0.809472, -0.809471, -0.772103, -0.772103
18, 0.00000, -0.849445, -0.849442, -0.813387, -0.813386, -0.775574, -0.775574
18, 900.00000, -0.853114, -0.853111, -0.817299, -0.817298, -0.779039, -0.779039
18, 1800.00000, -0.858198, -0.858201, -0.821835, -0.821837, -0.783409, -0.783409
18, 2700.00000, -0.855233, -0.855236, -0.818647, -0.818648, -0.780422, -0.780422
19, 0.00000, -0.852263, -0.852266, -0.815455, -0.815456, -0.777433, -0.777432
19, 900.00000, -0.849287, -0.849289, -0.81226, -0.812261, -0.77444, -0.77444
19, 1800.00000, -0.846621, -0.846625, -0.809199, -0.8092, -0.771655, -0.771654
19, 2700.00000, -0.842069, -0.842072, -0.804335, -0.804336, -0.767151, -0.767151
20, 0.00000, -0.837503, -0.837507, -0.799465, -0.799466, -0.762641, -0.762641
20, 900.00000, -0.832925, -0.832928, -0.79459, -0.794591, -0.758124, -0.758124
20, 1800.00000, -0.829046, -0.829051, -0.790019, -0.790021, -0.754052, -0.754052
20, 2700.00000, -0.820882, -0.820887, -0.781372, -0.781374, -0.746088, -0.746088
21, 0.00000, -0.812679, -0.812682, -0.772708, -0.772709, -0.738101, -0.738101
21, 900.00000, -0.804435, -0.804438, -0.764025, -0.764026, -0.730091, -0.730091
21, 1800.00000, -0.79681, -0.796811, -0.755608, -0.755608, -0.722471, -0.722471
21, 2700.00000, -0.785106, -0.785106, -0.743367, -0.743367, -0.71118, -0.71118
22, 0.00000, -0.773323, -0.773323, -0.73109, -0.73109, -0.699841, -0.699841
22, 900.00000, -0.761461, -0.761461, -0.718779, -0.718779, -0.688456, -0.688456
22, 1800.00000, -0.749542, -0.749542, -0.706442, -0.706442, -0.677062, -0.677062
22, 2700.00000, -0.737369, -0.737369, -0.693905, -0.693905, -0.665461, -0.665461
23, 0.00000, -0.725115, -0.725114, -0.681332, -0.681332, -0.653812, -0.653812
23, 900.00000, -0.71278, -0.71278, -0.668724, -0.668724, -0.642114, -0.642114
23, 1800.00000, -0.69968, -0.699673, -0.655788, -0.655786, -0.629957, -0.629957
23, 2700.00000, -0.691579, -0.691571, -0.647558, -0.647556, -0.622316, -0.622316
24, 0.00000, -0.683444, -0.683434, -0.639312, -0.63931, -0.614654, -0.614653
