hour,t(sec),V1,VAngle1,V2,VAngle2,V3,VAngle3,I1,IAngle1,I2,IAngle2,I3,IAngle3
0, 900.00000, 2500.13, -3.30868, 2507.21, -122.125, 2493.54, 117.628, 81.3983, -102.573, 87.1298, 147.816, 78.2365, 9.0325
0, 1800.00000, 2472.82, -4.11821, 2481.11, -122.886, 2468.37, 116.875, 101.297, -141.115, 97.3332, 108.382, 106.537, -26.8807
0, 2700.00000, 2474.21, -4.09241, 2481.86, -122.87, 2469.53, 116.893, 100.987, -140.782, 97.1159, 108.662, 106.122, -26.5527
1, 0.00000, 2475.61, -4.06634, 2482.61, -122.854, 2470.69, 116.912, 100.676, -140.443, 96.9004, 108.943, 105.707, -26.2203
1, 900.00000, 2477.01, -4.04028, 2483.35, -122.839, 2471.85, 116.93, 100.369, -140.103, 96.6871, 109.225, 105.296, -25.8857
1, 1800.00000, 2477.82, -4.02313, 2483.81, -122.829, 2472.64, 116.944, 100.071, -139.806, 96.4711, 109.494, 104.929, -25.612
1, 2700.00000, 2478.53, -4.009, 2484.17, -122.822, 2473.34, 116.955, 99.9011, -139.614, 96.355, 109.647, 104.711, -25.4286
2, 0.00000, 2479.24, -3.99489, 2484.53, -122.815, 2474.04, 116.966, 99.7327, -139.422, 96.2396, 109.801, 104.494, -25.2448
2, 900.00000, 2479.94, -3.98078, 2484.89, -122.808, 2474.74, 116.977, 99.5654, -139.23, 96.1248, 109.955, 104.278, -25.0604
2, 1800.00000, 2480.29, -3.97312, 2485.1, -122.803, 2475.09, 116.983, 99.4049, -139.07, 96.0083, 110.103, 104.086, -24.9176
2, 2700.00000, 2480.56, -3.96776, 2485.25, -122.8, 2475.36, 116.988, 99.3409, -138.992, 95.9669, 110.16, 104.006, -24.8471
3, 0.00000, 2480.83, -3.96241, 2485.39, -122.797, 2475.64, 116.992, 99.2771, -138.915, 95.9256, 110.217, 103.926, -24.7766
3, 900.00000, 2481.1, -3.95706, 2485.54, -122.795, 2475.91, 116.997, 99.2135, -138.838, 95.8844, 110.274, 103.846, -24.7059
3, 1800.00000, 2480.39, -3.96722, 2485.21, -122.801, 2475.5, 116.992, 99.1587, -138.838, 95.8351, 110.31, 103.832, -24.7439
3, 2700.00000, 2479.5, -3.98271, 2484.73, -122.812, 2474.92, 116.983, 99.3242, -139.029, 95.957, 110.136, 104.075, -24.9484
4, 0.00000, 2478.61, -3.99823, 2484.24, -122.823, 2474.34, 116.974, 99.4913, -139.221, 96.0799, 109.962, 104.32, -25.1524
4, 900.00000, 2477.71, -4.01376, 2483.76, -122.834, 2473.76, 116.965, 99.6594, -139.412, 96.2036, 109.788, 104.565, -25.3555
4, 1800.00000, 2475.45, -4.05086, 2482.61, -122.858, 2472.25, 116.945, 99.8415, -139.708, 96.3171, 109.585, 104.909, -25.7073
4, 2700.00000, 2472.92, -4.09542, 2481.23, -122.889, 2470.5, 116.918, 100.341, -140.264, 96.6769, 109.093, 105.621, -26.2809
5, 0.00000, 2485.58, -4.15564, 2480.09, -122.911, 2468.35, 116.889, 101, -140.449, 97.0452, 108.622, 106.35, -26.8645
5, 900.00000, 2483.05, -4.1994, 2478.7, -122.942, 2466.62, 116.862, 101.497, -140.986, 97.4199, 108.133, 107.077, -27.42
5, 1800.00000, 2495.08, -4.24607, 2492.31, -122.974, 2479.96, 116.842, 102.186, -141.229, 98.0191, 108.034, 108.015, -27.7534
5, 2700.00000, 2490.16, -4.32987, 2489.61, -123.035, 2476.77, 116.792, 103.162, -142.24, 98.7285, 107.138, 109.429, -28.7768
6, 0.00000, 2485.23, -4.41397, 2486.91, -123.096, 2473.57, 116.743, 104.171, -143.239, 99.4598, 106.253, 110.878, -29.7771
6, 900.00000, 2480.29, -4.49824, 2484.2, -123.157, 2470.36, 116.693, 105.209, -144.224, 100.213, 105.378, 112.36, -30.7544
6, 1800.00000, 2477.43, -4.55077, 2482.5, -123.197, 2468.48, 116.66, 106.226, -145.035, 100.999, 104.561, 113.685, -31.5083
6, 2700.00000, 2474.92, -4.59305, 2481.13, -123.229, 2466.93, 116.636, 106.763, -145.509, 101.395, 104.13, 114.453, -31.9789
7, 0.00000, 2472.41, -4.63537, 2479.76, -123.26, 2465.38, 116.612, 107.308, -145.978, 101.796, 103.702, 115.229, -32.4438
7, 900.00000, 2484.92, -4.69383, 2478.68, -123.282, 2463.44, 116.588, 107.902, -146.071, 102.201, 103.297, 116.017, -32.9149
7, 1800.00000, 2490.54, -4.47354, 2476.54, -123.229, 2466.04, 116.591, 108.419, -146.007, 102.609, 102.936, 116.607, -33.105
7, 2700.00000, 2493.01, -4.37606, 2475.84, -123.2, 2467.26, 116.6, 108.476, -145.877, 102.631, 102.922, 116.666, -33.099
8, 0.00000, 2495.42, -4.28019, 2475.09, -123.173, 2468.46, 116.607, 108.523, -145.746, 102.657, 102.902, 116.719, -33.0925
8, 900.00000, 2497.81, -4.18457, 2474.34, -123.146, 2469.67, 116.614, 108.571, -145.615, 102.683, 102.882, 116.773, -33.0858
8, 1800.00000, 2499.94, -4.1083, 2473.96, -123.123, 2470.86, 116.623, 108.599, -145.489, 102.714, 102.866, 116.785, -33.0463
8, 2700.00000, 2502.14, -4.03009, 2473.66, -123.099, 2472.12, 116.635, 108.519, -145.294, 102.651, 102.932, 116.671, -32.951
9, 0.00000, 2504.33, -3.95204, 2473.36, -123.074, 2473.39, 116.646, 108.439, -145.099, 102.588, 102.998, 116.557, -32.8554
9, 900.00000, 2506.51, -3.87414, 2473.07, -123.05, 2474.66, 116.657, 108.36, -144.905, 102.525, 103.065, 116.443, -32.7596
9, 1800.00000, 2507.39, -3.83824, 2472.78, -123.042, 2475.25, 116.661, 108.29, -144.804, 102.464, 103.114, 116.36, -32.7088
9, 2700.00000, 2508.23, -3.80384, 2472.47, -123.034, 2475.79, 116.664, 108.28, -144.741, 102.448, 103.123, 116.345, -32.6895
10, 0.00000, 2508.65, -3.77089, 2487.84, -123.04, 2476.52, 116.677, 108.267, -144.692, 102.582, 103.538, 116.32, -32.6516
10, 900.00000, 2509.5, -3.73681, 2487.54, -123.032, 2477.03, 116.68, 108.257, -144.629, 102.56, 103.553, 116.315, -32.6376
10, 1800.00000, 2510.11, -3.721, 2487.64, -123.027, 2477.51, 116.685, 108.228, -144.57, 102.55, 103.571, 116.26, -32.5865
10, 2700.00000, 2510.79, -3.70348, 2487.81, -123.019, 2478.05, 116.693, 108.112, -144.454, 102.463, 103.657, 116.103, -32.4889
11, 0.00000, 2511.47, -3.68596, 2487.98, -123.012, 2478.58, 116.7, 107.995, -144.338, 102.377, 103.743, 115.946, -32.3911
11, 900.00000, 2496.97, -3.65087, 2487.86, -123.014, 2479.51, 116.707, 107.82, -144.593, 102.291, 103.81, 115.784, -32.2805
11, 1800.00000, 2497.46, -3.63983, 2488.06, -123.009, 2479.99, 116.714, 107.706, -144.489, 102.202, 103.897, 115.632, -32.1863
11, 2700.00000, 2497.97, -3.6283, 2488.26, -123.004, 2480.47, 116.721, 107.582, -144.377, 102.113, 103.986, 115.471, -32.0875
12, 0.00000, 2498.48, -3.61677, 2488.46, -123, 2480.96, 116.728, 107.458, -144.266, 102.023, 104.074, 115.311, -31.9884
12, 900.00000, 2498.98, -3.60524, 2488.65, -122.995, 2481.44, 116.735, 107.334, -144.154, 101.934, 104.162, 115.151, -31.8891
12, 1800.00000, 2498.74, -3.62013, 2489.16, -122.993, 2481.51, 116.745, 107.21, -144.091, 101.85, 104.255, 115.004, -31.8069
12, 2700.00000, 2498.45, -3.63627, 2489.65, -122.992, 2481.54, 116.754, 107.14, -144.065, 101.808, 104.31, 114.92, -31.7543
13, 0.00000, 2498.17, -3.65241, 2490.13, -122.991, 2481.57, 116.763, 107.07, -144.038, 101.766, 104.366, 114.837, -31.7017
13, 900.00000, 2497.88, -3.66857, 2490.62, -122.989, 2481.59, 116.772, 107, -144.011, 101.724, 104.421, 114.753, -31.6491
13, 1800.00000, 2497.07, -3.70157, 2491.01, -122.996, 2481.24, 116.774, 106.939, -144.029, 101.681, 104.466, 114.686, -31.6242
13, 2700.00000, 2496.23, -3.73557, 2491.38, -123.003, 2480.87, 116.776, 106.922, -144.077, 101.673, 104.479, 114.67, -31.6235
14, 0.00000, 2495.38, -3.76961, 2491.75, -123.01, 2480.49, 116.778, 106.905, -144.124, 101.666, 104.491, 114.654, -31.6229
14, 900.00000, 2494.53, -3.80367, 2492.11, -123.017, 2480.11, 116.78, 106.888, -144.172, 101.658, 104.504, 114.638, -31.6222
14, 1800.00000, 2492.62, -3.87737, 2492.55, -123.038, 2478.89, 116.768, 106.874, -144.298, 101.653, 104.504, 114.627, -31.6591
14, 2700.00000, 2490.65, -3.95276, 2492.95, -123.059, 2477.63, 116.756, 106.929, -144.47, 101.7, 104.456, 114.697, -31.7338
15, 0.00000, 2488.67, -4.0283, 2493.35, -123.081, 2476.36, 116.743, 106.984, -144.642, 101.746, 104.408, 114.767, -31.8085
15, 900.00000, 2486.68, -4.10398, 2493.76, -123.103, 2475.1, 116.731, 107.039, -144.815, 101.793, 104.36, 114.837, -31.8831
15, 1800.00000, 2482.45, -4.23246, 2493.54, -123.147, 2472.22, 116.698, 107.161, -145.182, 101.831, 104.275, 115.059, -32.1311
15, 2700.00000, 2476.13, -4.43871, 2494.44, -123.2, 2468.45, 116.681, 107.662, -145.912, 102.202, 103.932, 115.728, -32.5731
16, 0.00000, 2472.32, -4.54521, 2493.21, -123.256, 2465.58, 116.626, 108.183, -146.474, 102.552, 103.535, 116.403, -33.0278
16, 900.00000, 2481.3, -4.75274, 2492.56, -123.333, 2461.14, 116.557, 108.738, -146.803, 102.908, 103.136, 117.096, -33.5321
16, 1800.00000, 2492.94, -4.80626, 2506.11, -123.36, 2473.39, 116.524, 109.405, -147.038, 103.406, 103.161, 117.988, -33.8076
16, 2700.00000, 2487.17, -4.90919, 2503.03, -123.424, 2468.85, 116.453, 110.871, -148.22, 104.407, 102.178, 119.921, -34.8788
17, 0.00000, 2481.38, -5.01254, 2499.94, -123.488, 2464.29, 116.382, 112.384, -149.379, 105.437, 101.211, 121.898, -35.9216
17, 900.00000, 2475.58, -5.11618, 2496.85, -123.553, 2459.72, 116.31, 113.941, -150.514, 106.495, 100.259, 123.915, -36.9357
17, 1800.00000, 2473.61, -5.15886, 2495.54, -123.584, 2458.02, 116.276, 115.334, -151.301, 107.586, 99.4063, 125.54, -37.5823
17, 2700.00000, 2472.32, -5.18252, 2494.88, -123.598, 2456.92, 116.259, 115.707, -151.554, 107.838, 99.1965, 126.009, -37.8045
18, 0.00000, 2471.04, -5.20604, 2494.21, -123.612, 2455.84, 116.242, 116.079, -151.805, 108.09, 98.9884, 126.476, -38.0242
18, 900.00000, 2484.59, -5.24688, 2493.9, -123.617, 2454.35, 116.226, 116.396, -151.698, 108.339, 98.8028, 126.96, -38.2552
18, 1800.00000, 2485.42, -5.23706, 2494.18, -123.612, 2454.75, 116.227, 116.662, -151.78, 108.604, 98.6358, 127.198, -38.2955
18, 2700.00000, 2486.62, -5.21738, 2494.84, -123.597, 2455.47, 116.238, 116.374, -151.587, 108.394, 98.813, 126.798, -38.1148
19, 0.00000, 2487.82, -5.19761, 2495.49, -123.583, 2456.2, 116.249, 116.085, -151.392, 108.183, 98.9914, 126.398, -37.9324
19, 900.00000, 2489.02, -5.17785, 2496.14, -123.568, 2456.93, 116.261, 115.797, -151.196, 107.974, 99.1703, 125.999, -37.7491
19, 1800.00000, 2490.69, -5.15077, 2497.01, -123.549, 2457.99, 116.276, 115.493, -150.965, 107.766, 99.3595, 125.552, -37.5249
19, 2700.00000, 2492.45, -5.12112, 2497.95, -123.528, 2459.14, 116.294, 115.061, -150.664, 107.453, 99.6293, 124.959, -37.2453
20, 0.00000, 2494.22, -5.09147, 2498.9, -123.507, 2460.29, 116.311, 114.631, -150.362, 107.143, 99.9003, 124.369, -36.9633
20, 900.00000, 2495.98, -5.06184, 2499.84, -123.486, 2461.44, 116.329, 114.204, -150.058, 106.834, 100.173, 123.782, -36.6789
20, 1800.00000, 2498.85, -5.01471, 2501.28, -123.456, 2463.37, 116.356, 113.728, -149.663, 106.529, 100.47, 123.078, -36.2944
20, 2700.00000, 2501.9, -4.96269, 2502.91, -123.42, 2465.45, 116.389, 112.986, -149.115, 105.995, 100.953, 122.062, -35.7827
21, 0.00000, 2504.95, -4.91074, 2504.53, -123.384, 2467.54, 116.421, 112.253, -148.563, 105.467, 101.44, 121.057, -35.2635
21, 900.00000, 2507.99, -4.85885, 2506.15, -123.349, 2469.62, 116.453, 111.531, -148.005, 104.948, 101.93, 120.061, -34.737
21, 1800.00000, 2496.97, -4.77478, 2507.95, -123.313, 2472.82, 116.494, 110.76, -147.725, 104.442, 102.425, 118.969, -34.0956
21, 2700.00000, 2501.18, -4.70241, 2510.23, -123.263, 2475.77, 116.54, 109.768, -146.923, 103.731, 103.129, 117.61, -33.3317
22, 0.00000, 2505.37, -4.63015, 2512.51, -123.214, 2478.72, 116.586, 108.791, -146.108, 103.039, 103.836, 116.272, -32.5515
22, 900.00000, 2510.01, -4.55489, 2498.87, -123.153, 2481.53, 116.622, 107.833, -145.262, 102.19, 104.145, 114.96, -31.7706
22, 1800.00000, 2498.96, -4.4661, 2500.86, -123.114, 2484.99, 116.67, 106.82, -144.789, 101.52, 104.846, 113.652, -30.9351
22, 2700.00000, 2503.12, -4.39362, 2503.16, -123.065, 2488.01, 116.717, 105.882, -143.926, 100.848, 105.59, 112.369, -30.0963
23, 0.00000, 2507.3, -4.3206, 2505.43, -123.016, 2491.05, 116.764, 104.961, -143.046, 100.196, 106.338, 111.107, -29.2385
23, 900.00000, 2511.49, -4.24722, 2507.68, -122.967, 2494.09, 116.811, 104.061, -142.152, 99.5606, 107.092, 109.868, -28.3631
23, 1800.00000, 2498.91, -4.18756, 2509.55, -122.936, 2480.99, 116.862, 103.082, -141.734, 98.9385, 107.825, 108.72, -27.9634
23, 2700.00000, 2501.58, -4.14087, 2511.05, -122.904, 2482.95, 116.893, 102.518, -141.137, 98.5441, 108.327, 107.944, -27.3812
24, 0.00000, 2504.27, -4.09346, 2512.54, -122.872, 2484.94, 116.924, 101.955, -140.527, 98.1574, 108.831, 107.167, -26.7825
