hour,t(sec),V1,VAngle1,I1,IAngle1
0, 900.00000, 2411.23, -1.18028, 35.4806, 152.237
0, 1800.00000, 2405.18, -1.30934, 35.2231, 152.108
0, 2700.00000, 2405.69, -1.30149, 34.9569, 152.116
1, 0.00000, 2406.2, -1.29357, 34.6901, 152.124
1, 900.00000, 2406.72, -1.28564, 34.4233, 152.132
1, 1800.00000, 2407.01, -1.28082, 34.274, 152.137
1, 2700.00000, 2407.27, -1.27651, 34.1249, 152.142
2, 0.00000, 2407.53, -1.2722, 33.9758, 152.146
2, 900.00000, 2407.8, -1.26789, 33.8267, 152.151
2, 1800.00000, 2407.92, -1.26579, 33.7614, 152.153
2, 2700.00000, 2408.02, -1.26406, 33.6961, 152.154
3, 0.00000, 2408.13, -1.26234, 33.6309, 152.156
3, 900.00000, 2408.23, -1.26062, 33.5657, 152.158
3, 1800.00000, 2407.95, -1.26429, 33.7016, 152.154
3, 2700.00000, 2407.63, -1.26884, 33.8378, 152.15
4, 0.00000, 2407.31, -1.27339, 33.9742, 152.145
4, 900.00000, 2406.99, -1.27795, 34.1105, 152.14
4, 1800.00000, 2406.13, -1.28997, 34.5243, 152.128
4, 2700.00000, 2405.22, -1.3032, 34.9388, 152.115
5, 0.00000, 2404.34, -1.32258, 35.3549, 152.095
5, 900.00000, 2403.42, -1.33561, 35.7679, 152.082
5, 1800.00000, 2416.9, -1.3511, 36.5485, 152.066
5, 2700.00000, 2415.13, -1.37612, 37.3498, 152.04
6, 0.00000, 2413.35, -1.40114, 38.1515, 152.015
6, 900.00000, 2411.56, -1.42614, 38.9534, 151.99
6, 1800.00000, 2410.58, -1.44016, 39.3406, 151.975
6, 2700.00000, 2409.68, -1.45253, 39.7276, 151.963
7, 0.00000, 2408.78, -1.46488, 40.1147, 151.95
7, 900.00000, 2407.88, -1.48374, 40.5027, 151.931
7, 1800.00000, 2409.61, -1.42339, 40.5308, 151.992
7, 2700.00000, 2410.43, -1.39445, 40.562, 152.021
8, 0.00000, 2411.19, -1.36735, 40.5922, 152.048
8, 900.00000, 2411.94, -1.34029, 40.6225, 152.075
8, 1800.00000, 2412.64, -1.31826, 40.5518, 152.097
8, 2700.00000, 2413.35, -1.29591, 40.4811, 152.119
9, 0.00000, 2414.06, -1.27358, 40.4105, 152.142
9, 900.00000, 2414.77, -1.25126, 40.3398, 152.164
9, 1800.00000, 2415.03, -1.24178, 40.3445, 152.174
9, 2700.00000, 2415.27, -1.23258, 40.3498, 152.183
10, 0.00000, 2415.41, -1.22297, 40.3551, 152.192
10, 900.00000, 2415.66, -1.21385, 40.3605, 152.202
10, 1800.00000, 2415.89, -1.20859, 40.2738, 152.207
10, 2700.00000, 2416.14, -1.20305, 40.1871, 152.213
11, 0.00000, 2416.38, -1.19752, 40.1004, 152.218
11, 900.00000, 2416.62, -1.18548, 40.0129, 152.23
11, 1800.00000, 2416.79, -1.18219, 39.9223, 152.234
11, 2700.00000, 2416.98, -1.1788, 39.8309, 152.237
12, 0.00000, 2417.16, -1.1754, 39.7396, 152.241
12, 900.00000, 2417.34, -1.172, 39.6483, 152.244
12, 1800.00000, 2417.28, -1.17622, 39.5922, 152.24
12, 2700.00000, 2417.21, -1.18066, 39.5364, 152.236
13, 0.00000, 2417.14, -1.1851, 39.4806, 152.231
13, 900.00000, 2417.07, -1.18953, 39.4249, 152.227
13, 1800.00000, 2416.82, -1.19883, 39.4206, 152.218
13, 2700.00000, 2416.57, -1.20829, 39.4165, 152.208
14, 0.00000, 2416.31, -1.21776, 39.4125, 152.199
14, 900.00000, 2416.05, -1.22722, 39.4084, 152.189
14, 1800.00000, 2415.42, -1.24894, 39.4506, 152.167
14, 2700.00000, 2414.77, -1.27095, 39.4933, 152.145
15, 0.00000, 2414.11, -1.29297, 39.536, 152.123
15, 900.00000, 2413.46, -1.31501, 39.5788, 152.101
15, 1800.00000, 2412, -1.35256, 39.9788, 152.063
15, 2700.00000, 2409.94, -1.41041, 40.379, 152.005
16, 0.00000, 2408.6, -1.44153, 40.7783, 151.973
16, 900.00000, 2406.57, -1.50138, 41.1797, 151.913
16, 1800.00000, 2419.81, -1.52059, 42.2549, 151.893
16, 2700.00000, 2417.7, -1.55168, 43.3566, 151.862
17, 0.00000, 2415.58, -1.58277, 44.4586, 151.83
17, 900.00000, 2413.45, -1.61382, 45.5609, 151.798
17, 1800.00000, 2412.82, -1.62383, 45.8121, 151.788
17, 2700.00000, 2412.35, -1.63088, 46.0641, 151.781
18, 0.00000, 2411.88, -1.6379, 46.3158, 151.773
18, 900.00000, 2411.37, -1.65196, 46.5694, 151.759
18, 1800.00000, 2411.71, -1.64776, 46.3817, 151.763
18, 2700.00000, 2412.14, -1.64204, 46.1945, 151.769
19, 0.00000, 2412.57, -1.63629, 46.007, 151.775
19, 900.00000, 2413, -1.63055, 45.8196, 151.781
19, 1800.00000, 2413.61, -1.62232, 45.5338, 151.789
19, 2700.00000, 2414.24, -1.61366, 45.2477, 151.798
20, 0.00000, 2414.87, -1.60499, 44.9615, 151.807
20, 900.00000, 2415.5, -1.59632, 44.6754, 151.816
20, 1800.00000, 2416.56, -1.58175, 44.1635, 151.83
20, 2700.00000, 2417.65, -1.56643, 43.6527, 151.846
21, 0.00000, 2418.75, -1.55109, 43.1419, 151.862
21, 900.00000, 2419.84, -1.53575, 42.6311, 151.877
21, 1800.00000, 2421.33, -1.50827, 41.9012, 151.905
21, 2700.00000, 2422.87, -1.48651, 41.1729, 151.927
22, 0.00000, 2424.39, -1.46491, 40.4447, 151.95
22, 900.00000, 2426.05, -1.44292, 39.5795, 151.972
22, 1800.00000, 2427.55, -1.41445, 38.8308, 152.001
22, 2700.00000, 2429.07, -1.3925, 38.0835, 152.023
23, 0.00000, 2430.6, -1.37037, 37.3355, 152.046
23, 900.00000, 2432.14, -1.34794, 36.5871, 152.069
23, 1800.00000, 2433.08, -1.32798, 36.0826, 152.089
23, 2700.00000, 2434.06, -1.31357, 35.5794, 152.104
24, 0.00000, 2435.06, -1.29896, 35.0749, 152.119
