hour,t(sec),V1,VAngle1,V2,VAngle2,V3,VAngle3,I1,IAngle1,I2,IAngle2,I3,IAngle3
4680, 900.00000, 2508.2, -4.12015, 2413.22, -122.768, 2375.08, 117.009, 0.00239383, -97.3452, 0.00255681, 154.801, 12.8324, -89.5445
4680, 1800.00000, 2510.12, -4.09058, 2414.01, -122.751, 2376.34, 117.025, 0.00239553, -97.3181, 0.00255783, 154.817, 12.6652, -89.5283
4680, 2700.00000, 2512.07, -4.06054, 2414.8, -122.735, 2377.62, 117.041, 0.00239726, -97.2905, 0.00255886, 154.834, 12.4976, -89.5121
4681, 0.00000, 2514.02, -4.0305, 2415.59, -122.718, 2378.89, 117.057, 0.00239898, -97.263, 0.00255988, 154.851, 12.3301, -89.4958
4681, 900.00000, 2515.96, -4.00047, 2416.37, -122.702, 2380.17, 117.074, 0.0024007, -97.2354, 0.00256091, 154.868, 12.1625, -89.4796
4681, 1800.00000, 2517.16, -3.98222, 2416.86, -122.691, 2380.91, 117.083, 0.00240174, -97.2186, 0.00256154, 154.879, 12.0621, -89.4705
4681, 2700.00000, 2518.35, -3.96424, 2417.35, -122.681, 2381.63, 117.092, 0.00240278, -97.2019, 0.00256217, 154.889, 11.9619, -89.4614
4682, 0.00000, 2519.53, -3.94628, 2417.84, -122.67, 2382.36, 117.101, 0.00240382, -97.1853, 0.00256281, 154.899, 11.8617, -89.4523
4682, 900.00000, 2520.72, -3.92831, 2418.33, -122.659, 2383.09, 117.11, 0.00240486, -97.1686, 0.00256344, 154.91, 11.7616, -89.4432
4682, 1800.00000, 2521.23, -3.9211, 2418.54, -122.654, 2383.29, 117.112, 0.00240529, -97.1617, 0.00256371, 154.914, 11.7262, -89.4411
4682, 2700.00000, 2521.74, -3.91413, 2418.75, -122.649, 2383.49, 117.114, 0.00240571, -97.155, 0.00256399, 154.918, 11.691, -89.4392
4683, 0.00000, 2522.25, -3.90717, 2418.97, -122.643, 2383.7, 117.115, 0.00240613, -97.1482, 0.00256426, 154.922, 11.6558, -89.4372
4683, 900.00000, 2522.75, -3.90021, 2419.18, -122.638, 2383.9, 117.117, 0.00240654, -97.1415, 0.00256453, 154.927, 11.6207, -89.4352
4683, 1800.00000, 2522.54, -3.90348, 2419.09, -122.64, 2383.73, 117.115, 0.00240635, -97.1445, 0.00256442, 154.925, 11.6412, -89.4374
4683, 2700.00000, 2522.32, -3.90702, 2419, -122.641, 2383.57, 117.113, 0.00240615, -97.1476, 0.0025643, 154.923, 11.6619, -89.4397
4684, 0.00000, 2522.1, -3.91056, 2418.91, -122.643, 2383.4, 117.111, 0.00240595, -97.1508, 0.00256419, 154.921, 11.6826, -89.4419
4684, 900.00000, 2521.88, -3.9141, 2418.82, -122.645, 2383.23, 117.109, 0.00240575, -97.154, 0.00256407, 154.919, 11.7033, -89.4442
4684, 1800.00000, 2520.71, -3.93226, 2418.34, -122.655, 2382.43, 117.098, 0.00240471, -97.1706, 0.00256345, 154.908, 11.808, -89.4547
4684, 2700.00000, 2519.53, -3.95078, 2417.86, -122.664, 2381.61, 117.088, 0.00240366, -97.1875, 0.00256282, 154.898, 11.913, -89.4653
4685, 0.00000, 2518.35, -3.9693, 2417.38, -122.674, 2380.79, 117.077, 0.0024026, -97.2044, 0.0025622, 154.888, 12.018, -89.4759
4685, 900.00000, 2517.17, -3.98782, 2416.91, -122.684, 2379.98, 117.067, 0.00240155, -97.2213, 0.00256158, 154.877, 12.1231, -89.4865
4685, 1800.00000, 2515.73, -4.01004, 2416.31, -122.696, 2379.03, 117.055, 0.00240027, -97.2417, 0.00256081, 154.864, 12.2487, -89.4987
4685, 2700.00000, 2514.28, -4.03237, 2415.73, -122.709, 2378.08, 117.043, 0.00239899, -97.2621, 0.00256005, 154.852, 12.3744, -89.5108
4686, 0.00000, 2512.84, -4.05469, 2415.13, -122.721, 2377.13, 117.031, 0.00239771, -97.2826, 0.00255928, 154.839, 12.5001, -89.523
4686, 900.00000, 2511.39, -4.07703, 2414.54, -122.733, 2376.18, 117.018, 0.00239643, -97.3031, 0.00255851, 154.826, 12.6258, -89.5351
4686, 1800.00000, 2511.1, -4.03461, 2412.11, -122.754, 2375.43, 116.973, 0.00239574, -97.2756, 0.00255679, 154.807, 12.815, -89.5809
4686, 2700.00000, 2509.9, -4.02864, 2410.41, -122.774, 2374.37, 116.941, 0.00239445, -97.276, 0.00255535, 154.788, 13.0035, -89.6131
4687, 0.00000, 2510.94, -3.94802, 2410.23, -122.727, 2374.84, 116.981, 0.00239523, -97.2018, 0.00255552, 154.836, 13.1922, -89.5728
4687, 900.00000, 2512.47, -3.83661, 2407.24, -122.731, 2374.99, 116.94, 0.00239589, -97.1164, 0.00255389, 154.835, 13.3802, -89.6147
4687, 1800.00000, 2512.82, -3.77272, 2405.44, -122.73, 2374.87, 116.924, 0.00239585, -97.0664, 0.00255278, 154.839, 13.5618, -89.6307
4687, 2700.00000, 2513.17, -3.70896, 2403.64, -122.728, 2374.74, 116.908, 0.00239581, -97.0166, 0.00255167, 154.844, 13.7436, -89.6467
4688, 0.00000, 2513.52, -3.64525, 2401.85, -122.727, 2374.62, 116.892, 0.00239576, -96.9667, 0.00255055, 154.848, 13.9254, -89.6626
4688, 900.00000, 2513.85, -3.5816, 2400.06, -122.725, 2374.49, 116.876, 0.00239571, -96.9169, 0.00254944, 154.852, 14.1072, -89.6785
4688, 1800.00000, 2512.87, -3.57998, 2399.32, -122.729, 2373.85, 116.872, 0.00239479, -96.9168, 0.00254869, 154.849, 14.2497, -89.6833
4688, 2700.00000, 2511.87, -3.5786, 2398.57, -122.734, 2373.21, 116.867, 0.00239386, -96.9168, 0.00254794, 154.846, 14.3925, -89.6883
4689, 0.00000, 2510.88, -3.57721, 2397.83, -122.738, 2372.56, 116.862, 0.00239293, -96.9169, 0.00254719, 154.843, 14.5353, -89.6933
4689, 900.00000, 2509.88, -3.5758, 2397.08, -122.742, 2371.92, 116.857, 0.00239201, -96.9169, 0.00254643, 154.84, 14.6782, -89.6983
4689, 1800.00000, 2507.98, -3.60196, 2396.39, -122.755, 2370.77, 116.848, 0.00239036, -96.9405, 0.00254548, 154.827, 14.8456, -89.7076
4689, 2700.00000, 2506.07, -3.62842, 2395.69, -122.767, 2369.61, 116.839, 0.00238871, -96.9644, 0.00254453, 154.815, 15.0134, -89.7169
4690, 0.00000, 2504.17, -3.65488, 2395, -122.78, 2368.46, 116.829, 0.00238706, -96.9882, 0.00254357, 154.803, 15.1813, -89.7262
4690, 900.00000, 2502.26, -3.68135, 2394.31, -122.793, 2367.3, 116.82, 0.0023854, -97.012, 0.00254262, 154.79, 15.3491, -89.7355
4690, 1800.00000, 2500.85, -3.69512, 2393.57, -122.803, 2366.33, 116.808, 0.00238413, -97.0253, 0.00254177, 154.78, 15.4971, -89.7474
4690, 2700.00000, 2499.46, -3.7087, 2392.82, -122.813, 2365.36, 116.796, 0.00238285, -97.0385, 0.00254091, 154.77, 15.645, -89.7593
4691, 0.00000, 2498.06, -3.72226, 2392.07, -122.823, 2364.4, 116.785, 0.00238158, -97.0516, 0.00254006, 154.76, 15.7928, -89.7712
4691, 900.00000, 2496.66, -3.73582, 2391.32, -122.833, 2363.44, 116.773, 0.0023803, -97.0648, 0.0025392, 154.749, 15.9407, -89.7831
4691, 1800.00000, 2494.82, -3.77151, 2390.96, -122.845, 2362.33, 116.765, 0.00237876, -97.0957, 0.00253849, 154.736, 16.0689, -89.791
4691, 2700.00000, 2492.99, -3.80742, 2390.61, -122.858, 2361.21, 116.757, 0.00237721, -97.1267, 0.00253779, 154.723, 16.1973, -89.7989
4692, 0.00000, 2491.15, -3.84335, 2390.26, -122.87, 2360.1, 116.749, 0.00237566, -97.1577, 0.00253708, 154.71, 16.3258, -89.8068
4692, 900.00000, 2489.32, -3.8793, 2389.91, -122.882, 2358.98, 116.742, 0.00237411, -97.1888, 0.00253638, 154.698, 16.4542, -89.8147
4692, 1800.00000, 2487.05, -3.91602, 2388.98, -122.903, 2357.45, 116.72, 0.00237209, -97.2226, 0.00253518, 154.676, 16.6377, -89.8363
4692, 2700.00000, 2484.8, -3.95227, 2388.05, -122.923, 2355.93, 116.699, 0.00237009, -97.256, 0.00253398, 154.654, 16.8207, -89.8578
4693, 0.00000, 2482.54, -3.98854, 2387.11, -122.944, 2354.41, 116.677, 0.00236808, -97.2895, 0.00253277, 154.633, 17.0037, -89.8793
4693, 900.00000, 2480.28, -4.02483, 2386.17, -122.965, 2352.89, 116.656, 0.00236607, -97.323, 0.00253157, 154.611, 17.1867, -89.9008
4693, 1800.00000, 2478.2, -4.06491, 2385.49, -122.984, 2351.51, 116.638, 0.00236425, -97.359, 0.00253057, 154.591, 17.3374, -89.9188
4693, 2700.00000, 2476.07, -4.10606, 2384.83, -123.003, 2350.09, 116.619, 0.00236239, -97.3958, 0.00252958, 154.57, 17.4894, -89.9374
4694, 0.00000, 2473.96, -4.14673, 2384.15, -123.023, 2348.69, 116.601, 0.00236055, -97.4322, 0.00252858, 154.55, 17.6408, -89.9557
4694, 900.00000, 2471.85, -4.18743, 2383.48, -123.042, 2347.28, 116.583, 0.00235871, -97.4687, 0.00252759, 154.53, 17.7922, -89.974
4694, 1800.00000, 2470.05, -4.22521, 2383.14, -123.055, 2346.14, 116.573, 0.00235718, -97.5014, 0.0025269, 154.515, 17.9154, -89.9837
4694, 2700.00000, 2468.23, -4.2635, 2382.82, -123.068, 2344.99, 116.564, 0.00235564, -97.5344, 0.00252622, 154.501, 18.0392, -89.9935
4695, 0.00000, 2466.41, -4.30183, 2382.49, -123.081, 2343.83, 116.554, 0.00235409, -97.5675, 0.00252554, 154.487, 18.163, -90.0033
4695, 900.00000, 2464.59, -4.3402, 2382.16, -123.094, 2342.67, 116.544, 0.00235254, -97.6006, 0.00252485, 154.473, 18.2868, -90.0132
4695, 1800.00000, 2462.63, -4.39351, 2382.21, -123.108, 2341.54, 116.538, 0.00235097, -97.6455, 0.00252439, 154.457, 18.3725, -90.0192
4695, 2700.00000, 2460.67, -4.44699, 2382.28, -123.122, 2340.42, 116.532, 0.00234938, -97.6905, 0.00252394, 154.442, 18.4582, -90.0252
4696, 0.00000, 2458.71, -4.50055, 2382.34, -123.136, 2339.29, 116.526, 0.0023478, -97.7355, 0.00252349, 154.426, 18.5439, -90.0311
4696, 900.00000, 2456.72, -4.55481, 2382.42, -123.15, 2338.14, 116.52, 0.00234619, -97.7811, 0.00252304, 154.411, 18.6303, -90.0369
4696, 1800.00000, 2455.52, -4.60092, 2382.95, -123.157, 2337.57, 116.523, 0.00234532, -97.8187, 0.00252311, 154.402, 18.6332, -90.035
4696, 2700.00000, 2454.32, -4.64749, 2383.5, -123.164, 2336.99, 116.525, 0.00234443, -97.8567, 0.00252318, 154.393, 18.6365, -90.033
4697, 0.00000, 2453.11, -4.69412, 2384.06, -123.172, 2336.41, 116.527, 0.00234354, -97.8946, 0.00252326, 154.384, 18.6397, -90.0309
4697, 900.00000, 2451.9, -4.7408, 2384.61, -123.179, 2335.83, 116.529, 0.00234266, -97.9326, 0.00252333, 154.375, 18.643, -90.0287
4697, 1800.00000, 2449.52, -4.85011, 2386.61, -123.188, 2335.06, 116.552, 0.00234111, -98.0194, 0.00252411, 154.364, 18.5681, -90.0057
4697, 2700.00000, 2449.27, -4.87789, 2386.99, -123.198, 2334.98, 116.545, 0.00234097, -98.0433, 0.0025243, 154.353, 18.4923, -90.0123
4698, 0.00000, 2449.03, -4.90568, 2387.37, -123.208, 2334.91, 116.539, 0.00234083, -98.0673, 0.0025245, 154.342, 18.4165, -90.0188
4698, 900.00000, 2448.78, -4.93348, 2387.74, -123.218, 2334.84, 116.532, 0.0023407, -98.0913, 0.00252469, 154.331, 18.3407, -90.0253
4698, 1800.00000, 2447.57, -5.01682, 2389.8, -123.22, 2334.75, 116.557, 0.00234011, -98.1563, 0.0025258, 154.328, 18.1964, -90.0001
4698, 2700.00000, 2447.96, -5.0344, 2389.62, -123.243, 2334.91, 116.53, 0.00234041, -98.1756, 0.00252574, 154.304, 18.052, -90.0272
4699, 0.00000, 2448.5, -5.04668, 2389.67, -123.261, 2335.24, 116.507, 0.00234084, -98.1897, 0.00252593, 154.286, 17.9074, -90.0499
4699, 900.00000, 2450.22, -5.0207, 2390.38, -123.246, 2336.31, 116.521, 0.00234235, -98.1657, 0.00252684, 154.301, 17.7625, -90.0362
4699, 1800.00000, 2451.18, -5.00549, 2390.74, -123.239, 2336.99, 116.529, 0.00234321, -98.1521, 0.00252732, 154.309, 17.6811, -90.0276
4699, 2700.00000, 2452.12, -4.99056, 2391.1, -123.232, 2337.66, 116.538, 0.00234406, -98.1386, 0.0025278, 154.317, 17.5999, -90.019
4700, 0.00000, 2453.06, -4.97565, 2391.46, -123.224, 2338.33, 116.547, 0.00234491, -98.1252, 0.00252827, 154.325, 17.5188, -90.0105
4700, 900.00000, 2454.01, -4.96073, 2391.82, -123.217, 2339, 116.555, 0.00234575, -98.1117, 0.00252875, 154.333, 17.4376, -90.0019
4700, 1800.00000, 2456.28, -4.92583, 2392.71, -123.198, 2340.45, 116.573, 0.00234776, -98.0798, 0.00252992, 154.353, 17.2495, -89.9836
4700, 2700.00000, 2458.54, -4.89115, 2393.6, -123.179, 2341.9, 116.591, 0.00234975, -98.0481, 0.00253109, 154.372, 17.0616, -89.9655
4701, 0.00000, 2460.8, -4.85648, 2394.5, -123.16, 2343.35, 116.609, 0.00235175, -98.0163, 0.00253226, 154.391, 16.8738, -89.9474
4701, 900.00000, 2463.06, -4.82183, 2395.39, -123.14, 2344.8, 116.627, 0.00235374, -97.9846, 0.00253343, 154.411, 16.6861, -89.9293
4701, 1800.00000, 2467.47, -4.75453, 2397.17, -123.103, 2347.61, 116.662, 0.00235763, -97.9228, 0.00253573, 154.449, 16.314, -89.8939
4701, 2700.00000, 2471.88, -4.68714, 2398.94, -123.065, 2350.42, 116.698, 0.00236151, -97.8609, 0.00253804, 154.487, 15.9421, -89.8584
4702, 0.00000, 2476.28, -4.6198, 2400.72, -123.027, 2353.23, 116.733, 0.0023654, -97.7991, 0.00254035, 154.525, 15.5702, -89.823
4702, 900.00000, 2480.68, -4.55251, 2402.49, -122.989, 2356.05, 116.768, 0.00236927, -97.7373, 0.00254265, 154.563, 15.1984, -89.7875
4702, 1800.00000, 2484.63, -4.4917, 2404.08, -122.956, 2358.61, 116.8, 0.00237277, -97.6816, 0.00254472, 154.597, 14.8625, -89.7551
4702, 2700.00000, 2488.58, -4.43095, 2405.66, -122.922, 2361.17, 116.832, 0.00237626, -97.6259, 0.00254679, 154.631, 14.5266, -89.7228
4703, 0.00000, 2492.53, -4.37025, 2407.25, -122.888, 2363.73, 116.865, 0.00237975, -97.5702, 0.00254885, 154.665, 14.1909, -89.6904
4703, 900.00000, 2496.47, -4.30958, 2408.83, -122.855, 2366.29, 116.897, 0.00238323, -97.5146, 0.00255092, 154.7, 13.8552, -89.658
4703, 1800.00000, 2499.21, -4.26735, 2409.94, -122.832, 2368.07, 116.919, 0.00238565, -97.4759, 0.00255236, 154.723, 13.6226, -89.6356
4703, 2700.00000, 2501.95, -4.22522, 2411.04, -122.808, 2369.84, 116.941, 0.00238807, -97.4373, 0.00255379, 154.747, 13.39, -89.6132
4704, 0.00000, 2504.69, -4.1831, 2412.14, -122.785, 2371.61, 116.963, 0.00239049, -97.3986, 0.00255523, 154.771, 13.1575, -89.5909
