hour,t(sec),V1,VAngle1,V2,VAngle2,V3,VAngle3,I1,IAngle1,I2,IAngle2,I3,IAngle3
0, 900.00000, 2371.02, -2.82143, 2437.2, -121.646, 2398.2, 118.114, 0.000013762, 88.0144, 0.0000143131, -29.9816, 0.0000140808, -151.699
0, 1800.00000, 2372.01, -2.80506, 2437.62, -121.638, 2398.97, 118.124, 0.0000137389, 90, 0.000014107, -30.4655, 0.0000140808, -151.699
0, 2700.00000, 2372.99, -2.7886, 2438.04, -121.63, 2399.75, 118.135, 0.000013762, 88.0144, 0.0000141533, -32.6192, 0.0000138714, -151.232
1, 0.00000, 2373.98, -2.77215, 2438.45, -121.622, 2400.53, 118.145, 0.0000137538, 90, 0.0000144337, -30.8014, 0.0000139877, -150.376
1, 900.00000, 2374.98, -2.75527, 2438.86, -121.613, 2401.31, 118.156, 0.0000137918, 88.0187, 0.0000144828, -32.9052, 0.0000137809, -149.886
1, 1800.00000, 2375.47, -2.74657, 2439.06, -121.61, 2401.79, 118.163, 0.0000137687, 90, 0.0000141533, -32.6192, 0.0000138714, -151.232
1, 2700.00000, 2375.95, -2.73779, 2439.25, -121.607, 2402.27, 118.169, 0.0000137687, 90, 0.0000145572, -31.6075, 0.0000141954, -150.852
2, 0.00000, 2376.44, -2.72901, 2439.45, -121.604, 2402.75, 118.176, 0.0000137918, 88.0187, 0.000014107, -30.4655, 0.0000136483, -152.987
2, 900.00000, 2376.92, -2.72023, 2439.64, -121.601, 2403.23, 118.183, 0.0000137687, 90, 0.0000144337, -30.8014, 0.0000137809, -149.886
2, 1800.00000, 2377.11, -2.71683, 2439.72, -121.6, 2403.42, 118.186, 0.0000137918, 88.0187, 0.0000139021, -30.9638, 0.0000138714, -151.232
2, 2700.00000, 2377.3, -2.71345, 2439.81, -121.598, 2403.61, 118.189, 0.0000137918, 88.0187, 0.0000139021, -30.9638, 0.0000139877, -150.376
3, 0.00000, 2377.49, -2.71008, 2439.89, -121.597, 2403.8, 118.191, 0.0000137687, 90, 0.0000143547, -32.1063, 0.0000140808, -151.699
3, 900.00000, 2377.67, -2.70671, 2439.97, -121.596, 2403.99, 118.194, 0.0000137918, 88.0187, 0.0000142294, -31.293, 0.0000138714, -151.232
3, 1800.00000, 2377.03, -2.71655, 2439.69, -121.602, 2403.62, 118.19, 0.0000137836, 90, 0.0000145572, -31.6075, 0.0000139877, -150.376
3, 2700.00000, 2376.39, -2.72647, 2439.41, -121.609, 2403.25, 118.185, 0.0000137687, 90, 0.0000143547, -32.1063, 0.0000137582, -152.103
4, 0.00000, 2375.74, -2.73638, 2439.13, -121.615, 2402.87, 118.181, 0.000013762, 88.0144, 0.0000144337, -30.8014, 0.000013548, -151.631
4, 900.00000, 2375.1, -2.7463, 2438.85, -121.621, 2402.5, 118.176, 0.0000137687, 90, 0.000014107, -30.4655, 0.0000136483, -152.987
4, 1800.00000, 2373.29, -2.77462, 2438.06, -121.638, 2401.36, 118.162, 0.000013762, 88.0144, 0.0000142294, -31.293, 0.0000139877, -150.376
4, 2700.00000, 2371.48, -2.80304, 2437.27, -121.656, 2400.22, 118.147, 0.000013762, 88.0144, 0.0000144337, -30.8014, 0.0000139877, -150.376
5, 0.00000, 2369.66, -2.83146, 2436.49, -121.673, 2399.08, 118.133, 0.0000137389, 90, 0.0000145572, -31.6075, 0.0000137582, -152.103
5, 900.00000, 2367.85, -2.85988, 2435.7, -121.69, 2397.95, 118.118, 0.0000137389, 90, 0.0000141533, -32.6192, 0.0000139694, -152.56
5, 1800.00000, 2364.3, -2.91443, 2434.14, -121.725, 2395.87, 118.093, 0.0000137091, 90, 0.0000141533, -32.6192, 0.0000142912, -152.152
5, 2700.00000, 2360.77, -2.96841, 2432.56, -121.761, 2393.8, 118.067, 0.0000136793, 90, 0.0000139021, -30.9638, 0.0000142912, -152.152
6, 0.00000, 2357.24, -3.02246, 2430.99, -121.796, 2391.72, 118.041, 0.0000136644, 90, 0.0000144828, -32.9052, 0.0000140808, -151.699
6, 900.00000, 2353.72, -3.07662, 2429.41, -121.831, 2389.63, 118.014, 0.0000136346, 90, 0.0000140262, -31.7989, 0.0000139694, -152.56
6, 1800.00000, 2351.94, -3.10348, 2428.61, -121.849, 2388.64, 118.002, 0.0000136346, 90, 0.0000142294, -31.293, 0.0000139877, -150.376
6, 2700.00000, 2365.53, -3.1136, 2443.1, -121.858, 2403, 118.001, 0.0000137323, 88.0101, 0.0000142294, -31.293, 0.0000142912, -152.152
7, 0.00000, 2363.75, -3.14026, 2442.3, -121.876, 2402.01, 117.989, 0.0000137323, 88.0101, 0.0000142294, -31.293, 0.0000139877, -150.376
7, 900.00000, 2361.96, -3.16713, 2441.5, -121.894, 2401.02, 117.976, 0.0000137174, 88.0079, 0.000014107, -30.4655, 0.0000139877, -150.376
7, 1800.00000, 2366.67, -2.97024, 2439.87, -121.844, 2403.36, 117.987, 0.0000137174, 88.0079, 0.0000144828, -32.9052, 0.0000140748, -153.869
7, 2700.00000, 2368.66, -2.8852, 2439.25, -121.82, 2404.38, 117.995, 0.0000137323, 88.0101, 0.000014107, -30.4655, 0.0000138611, -153.435
8, 0.00000, 2370.62, -2.8015, 2438.57, -121.798, 2405.38, 118.002, 0.0000137538, 90, 0.000014107, -30.4655, 0.0000141954, -150.852
8, 900.00000, 2372.53, -2.71884, 2437.93, -121.776, 2406.37, 118.009, 0.0000137538, 90, 0.0000144337, -30.8014, 0.0000137582, -152.103
8, 1800.00000, 2374.25, -2.65285, 2437.58, -121.757, 2407.35, 118.017, 0.0000137769, 88.0165, 0.0000141533, -32.6192, 0.0000139877, -150.376
8, 2700.00000, 2375.97, -2.58699, 2437.24, -121.739, 2408.33, 118.026, 0.0000137769, 88.0165, 0.0000142832, -33.4248, 0.0000138714, -151.232
9, 0.00000, 2377.67, -2.52124, 2436.91, -121.72, 2409.31, 118.034, 0.0000138165, 86.0421, 0.0000143547, -32.1063, 0.0000138714, -151.232
9, 900.00000, 2379.15, -2.46128, 2436.91, -121.703, 2410.09, 118.062, 0.0000138017, 86.0378, 0.0000142294, -31.293, 0.0000139877, -150.376
9, 1800.00000, 2379.8, -2.43195, 2436.63, -121.698, 2410.51, 118.064, 0.0000138314, 86.0463, 0.0000144337, -30.8014, 0.0000137582, -152.103
9, 2700.00000, 2380.45, -2.40259, 2436.35, -121.692, 2410.95, 118.067, 0.0000138314, 86.0463, 0.0000144828, -32.9052, 0.0000136629, -150.751
10, 0.00000, 2381.09, -2.37325, 2436.07, -121.686, 2411.38, 118.07, 0.0000137918, 88.0187, 0.000014107, -30.4655, 0.0000139694, -152.56
10, 900.00000, 2381.74, -2.34393, 2435.79, -121.681, 2411.81, 118.072, 0.0000137918, 88.0187, 0.000014107, -30.4655, 0.0000139877, -150.376
10, 1800.00000, 2382.23, -2.33074, 2435.86, -121.676, 2412.19, 118.077, 0.0000138216, 88.0229, 0.0000143547, -32.1063, 0.0000137582, -152.103
10, 2700.00000, 2382.72, -2.31757, 2435.93, -121.672, 2412.57, 118.082, 0.0000138463, 86.0506, 0.0000143547, -32.1063, 0.0000138714, -151.232
11, 0.00000, 2383.21, -2.30441, 2436, -121.668, 2412.95, 118.086, 0.0000138463, 86.0506, 0.0000142294, -31.293, 0.0000136629, -150.751
11, 900.00000, 2383.7, -2.29125, 2436.08, -121.663, 2413.32, 118.091, 0.0000138463, 86.0506, 0.0000145572, -31.6075, 0.0000134363, -152.526
11, 1800.00000, 2384.05, -2.28348, 2436.17, -121.661, 2413.66, 118.095, 0.0000138463, 86.0506, 0.0000143547, -32.1063, 0.0000137582, -152.103
11, 2700.00000, 2384.4, -2.27572, 2436.26, -121.659, 2413.99, 118.099, 0.0000138463, 86.0506, 0.000014107, -30.4655, 0.0000139877, -150.376
12, 0.00000, 2384.75, -2.26796, 2436.36, -121.657, 2414.33, 118.104, 0.0000138216, 88.0229, 0.0000145572, -31.6075, 0.0000136483, -152.987
12, 900.00000, 2385.09, -2.2602, 2436.45, -121.655, 2414.66, 118.108, 0.0000138611, 86.0548, 0.0000143547, -32.1063, 0.0000139694, -152.56
12, 1800.00000, 2384.84, -2.27569, 2436.81, -121.655, 2414.65, 118.114, 0.0000138216, 88.0229, 0.0000145572, -31.6075, 0.0000137809, -149.886
12, 2700.00000, 2384.58, -2.29122, 2437.18, -121.655, 2414.63, 118.121, 0.0000138216, 88.0229, 0.0000143131, -29.9816, 0.0000137809, -149.886
13, 0.00000, 2384.32, -2.30676, 2437.54, -121.655, 2414.61, 118.127, 0.0000138216, 88.0229, 0.000014107, -30.4655, 0.000013548, -151.631
13, 900.00000, 2384.06, -2.32231, 2437.91, -121.655, 2414.59, 118.133, 0.0000138463, 86.0506, 0.0000143131, -29.9816, 0.0000137809, -149.886
13, 1800.00000, 2383.38, -2.35194, 2438.22, -121.661, 2414.28, 118.135, 0.0000138463, 86.0506, 0.0000142832, -33.4248, 0.0000136629, -150.751
13, 2700.00000, 2382.7, -2.38162, 2438.54, -121.667, 2413.96, 118.136, 0.0000138463, 86.0506, 0.0000144828, -32.9052, 0.0000137582, -152.103
14, 0.00000, 2382.02, -2.41131, 2438.85, -121.673, 2413.65, 118.137, 0.0000138067, 88.0208, 0.0000142294, -31.293, 0.0000139877, -150.376
14, 900.00000, 2381.33, -2.44103, 2439.17, -121.678, 2413.33, 118.139, 0.0000138314, 86.0463, 0.0000144828, -32.9052, 0.0000141954, -150.852
14, 1800.00000, 2379.79, -2.50479, 2439.56, -121.695, 2412.34, 118.128, 0.0000137985, 90, 0.0000142294, -31.293, 0.0000140808, -151.699
14, 2700.00000, 2378.24, -2.5687, 2439.95, -121.712, 2411.34, 118.118, 0.0000137687, 90, 0.0000145572, -31.6075, 0.0000139877, -150.376
15, 0.00000, 2376.68, -2.63271, 2440.35, -121.729, 2410.34, 118.108, 0.0000137769, 88.0165, 0.0000142294, -31.293, 0.0000137809, -149.886
15, 900.00000, 2375.12, -2.69682, 2440.74, -121.746, 2409.34, 118.097, 0.0000137538, 90, 0.0000144337, -30.8014, 0.0000138714, -151.232
15, 1800.00000, 2371.73, -2.80474, 2440.69, -121.781, 2407.07, 118.071, 0.000013762, 88.0144, 0.0000142294, -31.293, 0.0000140808, -151.699
15, 2700.00000, 2366.9, -2.97413, 2441.79, -121.817, 2404.23, 118.062, 0.0000137323, 88.0101, 0.0000142832, -33.4248, 0.0000144041, -151.314
16, 0.00000, 2364.05, -3.05604, 2441.1, -121.856, 2402.17, 118.022, 0.0000137025, 88.0057, 0.0000144828, -32.9052, 0.0000138714, -151.232
16, 900.00000, 2359.47, -3.20874, 2440.77, -121.917, 2399.2, 117.973, 0.0000136727, 88.0014, 0.0000142294, -31.293, 0.0000137582, -152.103
16, 1800.00000, 2355.47, -3.27362, 2439.01, -121.951, 2396.17, 117.932, 0.0000136495, 90, 0.0000141533, -32.6192, 0.0000144041, -151.314
16, 2700.00000, 2351.46, -3.33861, 2437.25, -121.985, 2393.13, 117.891, 0.0000136793, 90, 0.0000139021, -30.9638, 0.0000140748, -153.869
17, 0.00000, 2347.44, -3.42715, 2435.85, -122.014, 2389.79, 117.854, 0.000013628, 87.9948, 0.000014107, -30.4655, 0.0000138714, -151.232
17, 900.00000, 2343.67, -3.48676, 2433.75, -122.046, 2386.88, 117.792, 0.0000135982, 87.9904, 0.0000140262, -31.7989, 0.0000137582, -152.103
17, 1800.00000, 2358.21, -3.4823, 2448.68, -122.042, 2401.49, 117.794, 0.0000136827, 86.0033, 0.0000139021, -30.9638, 0.0000141814, -153.004
17, 2700.00000, 2357.34, -3.49656, 2448.3, -122.049, 2400.76, 117.784, 0.0000136876, 88.0036, 0.0000140262, -31.7989, 0.0000139694, -152.56
18, 0.00000, 2356.47, -3.51114, 2447.93, -122.056, 2400.03, 117.774, 0.0000136876, 88.0036, 0.0000139021, -30.9638, 0.0000140808, -151.699
18, 900.00000, 2355.59, -3.52572, 2447.56, -122.062, 2399.3, 117.764, 0.0000136876, 88.0036, 0.0000141533, -32.6192, 0.0000141954, -150.852
18, 1800.00000, 2356.42, -3.51348, 2447.94, -122.054, 2399.76, 117.769, 0.0000136876, 88.0036, 0.0000142832, -33.4248, 0.0000137582, -152.103
18, 2700.00000, 2357.27, -3.50097, 2448.32, -122.045, 2400.22, 117.775, 0.0000136578, 87.9992, 0.0000142832, -33.4248, 0.0000137582, -152.103
19, 0.00000, 2358.11, -3.48847, 2448.7, -122.037, 2400.69, 117.78, 0.0000136876, 88.0036, 0.0000144828, -32.9052, 0.0000136483, -152.987
19, 900.00000, 2358.96, -3.47597, 2449.08, -122.028, 2401.15, 117.786, 0.0000136827, 86.0033, 0.0000141533, -32.6192, 0.0000142912, -152.152
19, 1800.00000, 2360.19, -3.45733, 2449.63, -122.016, 2401.89, 117.795, 0.0000136578, 87.9992, 0.0000141533, -32.6192, 0.0000138611, -153.435
19, 2700.00000, 2361.42, -3.43864, 2450.17, -122.005, 2402.64, 117.805, 0.0000136876, 88.0036, 0.0000143547, -32.1063, 0.0000137582, -152.103
20, 0.00000, 2362.65, -3.41995, 2450.71, -121.993, 2403.38, 117.814, 0.0000137719, 86.0292, 0.0000143547, -32.1063, 0.0000139694, -152.56
20, 900.00000, 2363.91, -3.40063, 2451.24, -121.981, 2404.14, 117.823, 0.0000137422, 86.0206, 0.000014107, -30.4655, 0.0000142912, -152.152
20, 1800.00000, 2366.37, -3.36941, 2452, -121.942, 2405.24, 117.834, 0.0000137174, 88.0079, 0.0000140262, -31.7989, 0.0000138611, -153.435
20, 2700.00000, 2368.51, -3.33601, 2452.9, -121.922, 2406.61, 117.851, 0.0000137719, 86.0292, 0.000014107, -30.4655, 0.0000139694, -152.56
21, 0.00000, 2370.62, -3.30312, 2453.83, -121.903, 2408, 117.869, 0.0000137719, 86.0292, 0.000014107, -30.4655, 0.0000139694, -152.56
21, 900.00000, 2372.73, -3.27053, 2454.75, -121.883, 2409.36, 117.887, 0.0000137471, 88.0122, 0.0000140262, -31.7989, 0.0000144041, -151.314
21, 1800.00000, 2375.41, -3.20738, 2456.04, -121.864, 2411.45, 117.928, 0.0000137868, 86.0335, 0.0000141533, -32.6192, 0.0000141954, -150.852
21, 2700.00000, 2378.36, -3.16161, 2457.34, -121.837, 2413.39, 117.953, 0.0000138017, 86.0378, 0.0000143547, -32.1063, 0.0000141954, -150.852
22, 0.00000, 2381.31, -3.11572, 2458.64, -121.809, 2415.33, 117.978, 0.0000138463, 86.0506, 0.0000139021, -30.9638, 0.0000141954, -150.852
22, 900.00000, 2384.27, -3.06943, 2459.91, -121.782, 2417.27, 118.002, 0.0000138365, 88.0251, 0.0000141533, -32.6192, 0.0000139877, -150.376
22, 1800.00000, 2387.24, -3.02297, 2461.22, -121.755, 2419.27, 118.028, 0.0000138514, 88.0272, 0.0000144828, -32.9052, 0.0000141954, -150.852
22, 2700.00000, 2390.4, -2.95564, 2461.96, -121.716, 2421.37, 118.045, 0.0000138909, 86.0633, 0.0000143547, -32.1063, 0.0000141954, -150.852
23, 0.00000, 2393.35, -2.90932, 2463.26, -121.69, 2423.38, 118.071, 0.0000138663, 88.0293, 0.0000140262, -31.7989, 0.0000141814, -153.004
23, 900.00000, 2396.09, -2.86901, 2464.89, -121.664, 2425.12, 118.116, 0.0000138812, 88.0314, 0.0000141533, -32.6192, 0.0000139694, -152.56
23, 1800.00000, 2382.63, -2.85357, 2450.47, -121.654, 2411.12, 118.124, 0.0000138067, 88.0208, 0.000014107, -30.4655, 0.0000141814, -153.004
23, 2700.00000, 2384.55, -2.82326, 2451.33, -121.637, 2412.45, 118.141, 0.0000138216, 88.0229, 0.0000143547, -32.1063, 0.0000138714, -151.232
24, 0.00000, 2386.47, -2.79268, 2452.18, -121.619, 2413.77, 118.159, 0.0000138611, 86.0548, 0.0000143547, -32.1063, 0.0000139694, -152.56
