hour,t(sec),V1,VAngle1,I1,IAngle1
0, 900.00000, 2496.66, -122.374, 19.7261, 109.887
0, 1800.00000, 2481.67, -122.349, 19.6063, 109.932
0, 2700.00000, 2482.34, -122.339, 19.593, 110.222
1, 0.00000, 2483.03, -122.33, 19.5802, 110.512
1, 900.00000, 2483.72, -122.32, 19.5678, 110.804
1, 1800.00000, 2484.05, -122.316, 19.5635, 110.92
1, 2700.00000, 2484.38, -122.312, 19.5592, 111.037
2, 0.00000, 2485.12, -122.308, 19.5578, 111.161
2, 900.00000, 2485.45, -122.304, 19.5537, 111.277
2, 1800.00000, 2485.58, -122.303, 19.5527, 111.312
2, 2700.00000, 2485.72, -122.301, 19.5518, 111.347
3, 0.00000, 2485.85, -122.3, 19.5509, 111.382
3, 900.00000, 2485.98, -122.298, 19.55, 111.417
3, 1800.00000, 2485.53, -122.306, 19.5606, 111.17
3, 2700.00000, 2485.08, -122.314, 19.5716, 110.923
4, 0.00000, 2484.63, -122.321, 19.5829, 110.677
4, 900.00000, 2484.18, -122.329, 19.5946, 110.43
4, 1800.00000, 2482.91, -122.35, 19.6262, 109.782
4, 2700.00000, 2481.64, -122.371, 19.6602, 109.136
5, 0.00000, 2480.37, -122.392, 19.6966, 108.491
5, 900.00000, 2479.09, -122.413, 19.7353, 107.849
5, 1800.00000, 2476.6, -122.455, 19.8175, 106.6
5, 2700.00000, 2474.09, -122.497, 19.9082, 105.363
6, 0.00000, 2471.58, -122.54, 20.0077, 104.135
6, 900.00000, 2469.08, -122.582, 20.1158, 102.918
6, 1800.00000, 2467.81, -122.604, 20.1766, 102.282
6, 2700.00000, 2466.54, -122.626, 20.2398, 101.649
7, 0.00000, 2465.27, -122.648, 20.3051, 101.021
7, 900.00000, 2479.8, -122.658, 20.4638, 100.709
7, 1800.00000, 2478.92, -122.597, 20.4643, 100.711
7, 2700.00000, 2478.58, -122.568, 20.468, 100.691
8, 0.00000, 2478.23, -122.541, 20.4714, 100.67
8, 900.00000, 2477.87, -122.514, 20.475, 100.647
8, 1800.00000, 2477.84, -122.491, 20.4692, 100.712
8, 2700.00000, 2477.81, -122.468, 20.4634, 100.777
9, 0.00000, 2477.78, -122.445, 20.4577, 100.842
9, 900.00000, 2477.75, -122.422, 20.4519, 100.906
9, 1800.00000, 2477.55, -122.416, 20.4533, 100.89
9, 2700.00000, 2477.35, -122.409, 20.4548, 100.874
10, 0.00000, 2477.16, -122.402, 20.4562, 100.857
10, 900.00000, 2476.96, -122.395, 20.4576, 100.841
10, 1800.00000, 2477.13, -122.39, 20.4494, 100.92
10, 2700.00000, 2477.31, -122.385, 20.4411, 100.999
11, 0.00000, 2477.48, -122.38, 20.4329, 101.078
11, 900.00000, 2477.37, -122.381, 20.423, 101.146
11, 1800.00000, 2477.55, -122.378, 20.4163, 101.213
11, 2700.00000, 2477.72, -122.375, 20.4096, 101.279
12, 0.00000, 2477.91, -122.373, 20.4029, 101.346
12, 900.00000, 2478.09, -122.37, 20.3962, 101.413
12, 1800.00000, 2478.54, -122.37, 20.3959, 101.445
12, 2700.00000, 2478.99, -122.369, 20.3955, 101.477
13, 0.00000, 2479.44, -122.369, 20.3952, 101.509
13, 900.00000, 2479.89, -122.369, 20.3948, 101.542
13, 1800.00000, 2480.14, -122.376, 20.3958, 101.543
13, 2700.00000, 2480.4, -122.383, 20.3968, 101.545
14, 0.00000, 2480.65, -122.39, 20.3978, 101.546
14, 900.00000, 2480.9, -122.398, 20.3988, 101.547
14, 1800.00000, 2481.04, -122.418, 20.397, 101.55
14, 2700.00000, 2481.18, -122.438, 20.3952, 101.554
15, 0.00000, 2481.32, -122.459, 20.3934, 101.557
15, 900.00000, 2481.46, -122.479, 20.3916, 101.56
15, 1800.00000, 2480.63, -122.522, 20.4225, 101.219
15, 2700.00000, 2481.11, -122.565, 20.4615, 100.903
16, 0.00000, 2479.58, -122.612, 20.4894, 100.547
16, 900.00000, 2477.81, -122.689, 20.5166, 100.156
16, 1800.00000, 2475.29, -122.724, 20.6346, 99.1183
16, 2700.00000, 2472.46, -122.764, 20.7573, 98.0788
17, 0.00000, 2469.63, -122.805, 20.8862, 97.0519
17, 900.00000, 2467.12, -122.84, 21.0228, 96.0499
17, 1800.00000, 2466.51, -122.848, 21.0502, 95.8482
17, 2700.00000, 2465.91, -122.857, 21.0778, 95.6474
18, 0.00000, 2465.3, -122.865, 21.1057, 95.4472
18, 900.00000, 2464.69, -122.873, 21.1338, 95.2474
18, 1800.00000, 2465.29, -122.862, 21.0948, 95.5125
18, 2700.00000, 2465.89, -122.852, 21.056, 95.7792
19, 0.00000, 2466.49, -122.842, 21.0177, 96.0469
19, 900.00000, 2467.09, -122.831, 20.9799, 96.3154
19, 1800.00000, 2467.96, -122.817, 20.9282, 96.6906
19, 2700.00000, 2468.82, -122.803, 20.8773, 97.0677
20, 0.00000, 2469.69, -122.788, 20.8272, 97.4465
20, 900.00000, 2470.55, -122.774, 20.7781, 97.827
20, 1800.00000, 2472.04, -122.75, 20.6984, 98.4651
20, 2700.00000, 2473.53, -122.726, 20.621, 99.1083
21, 0.00000, 2475.02, -122.702, 20.5461, 99.7559
21, 900.00000, 2476.51, -122.679, 20.4736, 100.408
21, 1800.00000, 2478.59, -122.646, 20.3789, 101.307
21, 2700.00000, 2480.67, -122.613, 20.2889, 102.215
22, 0.00000, 2482.74, -122.579, 20.2033, 103.131
22, 900.00000, 2484.55, -122.553, 20.1212, 104.041
22, 1800.00000, 2486.66, -122.52, 20.0471, 104.958
22, 2700.00000, 2488.77, -122.487, 19.9777, 105.881
23, 0.00000, 2490.87, -122.454, 19.9132, 106.81
23, 900.00000, 2492.98, -122.421, 19.8536, 107.745
23, 1800.00000, 2494.36, -122.4, 19.819, 108.338
23, 2700.00000, 2495.5, -122.385, 19.7848, 108.92
24, 0.00000, 2496.89, -122.364, 19.7543, 109.516
