hour,t(sec),V1,VAngle1,V2,VAngle2,V3,VAngle3,I1,IAngle1,I2,IAngle2,I3,IAngle3
4368, 900.00000, 2496.01, -3.43012, 2500.63, -122.352, 2494.47, 117.529, 14.8901, 165.26, 14.8623, 46.3383, 14.9, -73.7813
4368, 1800.00000, 2498.04, -3.39629, 2501.69, -122.331, 2495.98, 117.55, 14.6478, 165.294, 14.625, 46.3594, 14.6594, -73.7597
4368, 2700.00000, 2500.08, -3.36243, 2502.7, -122.31, 2497.48, 117.571, 14.4501, 165.328, 14.4352, 46.3796, 14.4654, -73.7393
4369, 0.00000, 2502.09, -3.32941, 2503.74, -122.29, 2498.96, 117.591, 14.2564, 165.361, 14.2456, 46.3999, 14.2737, -73.7185
4369, 900.00000, 2504.1, -3.29616, 2504.77, -122.27, 2500.46, 117.612, 14.0612, 165.394, 14.0561, 46.4202, 14.0812, -73.6978
4369, 1800.00000, 2505.4, -3.27419, 2505.44, -122.256, 2501.43, 117.626, 13.8698, 165.416, 13.8687, 46.4337, 13.8915, -73.6839
4369, 2700.00000, 2506.52, -3.26247, 2506.51, -122.242, 2486.68, 117.654, 13.7472, 165.428, 13.7467, 46.4484, 13.856, -73.656
4370, 0.00000, 2507.78, -3.24173, 2507.15, -122.229, 2487.59, 117.667, 13.625, 165.448, 13.6276, 46.461, 13.7352, -73.6431
4370, 900.00000, 2509.04, -3.22092, 2507.78, -122.217, 2488.52, 117.68, 13.5024, 165.469, 13.5083, 46.4735, 13.6134, -73.6302
4370, 1800.00000, 2509.63, -3.21059, 2508.09, -122.21, 2488.98, 117.687, 13.383, 165.48, 13.3909, 46.4798, 13.4939, -73.6233
4370, 2700.00000, 2510.18, -3.20131, 2508.37, -122.205, 2489.41, 117.693, 13.3282, 165.489, 13.3375, 46.4851, 13.4393, -73.6173
4371, 0.00000, 2510.73, -3.19204, 2508.64, -122.2, 2489.83, 117.699, 13.2734, 165.498, 13.2841, 46.4904, 13.3847, -73.6114
4371, 900.00000, 2511.28, -3.18276, 2508.92, -122.194, 2490.26, 117.704, 13.2186, 165.507, 13.2307, 46.4958, 13.3301, -73.6054
4371, 1800.00000, 2510.8, -3.19024, 2508.69, -122.198, 2489.89, 117.7, 13.1687, 165.5, 13.18, 46.4917, 13.2793, -73.6099
4371, 2700.00000, 2510.25, -3.19938, 2508.4, -122.204, 2489.47, 117.694, 13.2215, 165.491, 13.2316, 46.4863, 13.332, -73.6159
4372, 0.00000, 2509.7, -3.20852, 2508.12, -122.209, 2489.05, 117.688, 13.2744, 165.481, 13.2831, 46.4808, 13.3846, -73.6218
4372, 900.00000, 2509.15, -3.21767, 2507.84, -122.215, 2488.63, 117.682, 13.3273, 165.472, 13.3347, 46.4754, 13.4373, -73.6278
4372, 1800.00000, 2508.12, -3.2348, 2507.34, -122.224, 2487.83, 117.671, 13.3825, 165.455, 13.3873, 46.4661, 13.4919, -73.6385
4372, 2700.00000, 2507.06, -3.25277, 2506.82, -122.234, 2487, 117.66, 13.4901, 165.437, 13.492, 46.4561, 13.5991, -73.65
4373, 0.00000, 2506, -3.27075, 2506.31, -122.244, 2486.17, 117.648, 13.5977, 165.419, 13.5967, 46.4461, 13.7064, -73.6616
4373, 900.00000, 2504.94, -3.28874, 2505.79, -122.254, 2485.34, 117.637, 13.7054, 165.401, 13.7015, 46.4361, 13.8137, -73.6731
4373, 1800.00000, 2503.34, -3.31513, 2504.98, -122.269, 2484.12, 117.62, 13.8158, 165.375, 13.8078, 46.4208, 13.9231, -73.6899
4373, 2700.00000, 2501.72, -3.34233, 2504.16, -122.285, 2482.87, 117.602, 13.9754, 165.348, 13.9628, 46.4049, 14.0818, -73.7075
4374, 0.00000, 2500.09, -3.36955, 2503.33, -122.301, 2481.63, 117.585, 14.1351, 165.32, 14.1179, 46.3889, 14.2406, -73.7251
4374, 900.00000, 2498.46, -3.39677, 2502.5, -122.317, 2480.38, 117.567, 14.2951, 165.293, 14.2731, 46.373, 14.3997, -73.7427
4374, 1800.00000, 2495.8, -3.44018, 2501.15, -122.343, 2478.42, 117.541, 14.4605, 165.25, 14.4313, 46.347, 14.5626, -73.7694
4374, 2700.00000, 2498.06, -3.28114, 2498.04, -122.32, 2479.02, 117.516, 14.6996, 165.409, 14.6959, 46.3697, 14.8124, -73.7937
4375, 0.00000, 2497.19, -3.25082, 2496.08, -122.327, 2478, 117.493, 14.9518, 165.439, 14.9582, 46.3626, 15.068, -73.8172
4375, 900.00000, 2496.57, -3.21289, 2494.26, -122.327, 2477.14, 117.477, 15.2049, 165.477, 15.2185, 46.3627, 15.3244, -73.8327
4375, 1800.00000, 2496.49, -3.1652, 2492.56, -122.326, 2476.66, 117.46, 15.4549, 165.525, 15.4784, 46.3639, 15.5789, -73.8494
4375, 2700.00000, 2496.44, -3.11664, 2490.89, -122.324, 2476.21, 117.445, 15.6487, 165.573, 15.6827, 46.3659, 15.7768, -73.8652
4376, 0.00000, 2496.38, -3.06809, 2489.23, -122.322, 2475.76, 117.429, 15.8426, 165.622, 15.8873, 46.3679, 15.9749, -73.881
4376, 900.00000, 2496.33, -3.01957, 2487.56, -122.32, 2475.31, 117.413, 16.0365, 165.67, 16.0922, 46.3698, 16.173, -73.8967
4376, 1800.00000, 2495.76, -3.00326, 2486.42, -122.325, 2474.69, 117.4, 16.2335, 165.687, 16.2944, 46.3653, 16.372, -73.91
4376, 2700.00000, 2495.2, -2.98671, 2485.31, -122.329, 2474.09, 117.387, 16.3879, 165.703, 16.4527, 46.3613, 16.5274, -73.9225
4377, 0.00000, 2494.66, -2.96972, 2484.19, -122.333, 2473.5, 117.375, 16.5407, 165.72, 16.6101, 46.3574, 16.6825, -73.9351
4377, 900.00000, 2494.12, -2.95277, 2483.08, -122.336, 2472.9, 117.362, 16.6944, 165.737, 16.7683, 46.3536, 16.8378, -73.9477
4377, 1800.00000, 2493.14, -2.95407, 2482.05, -122.347, 2472.09, 117.347, 16.8507, 165.736, 16.9262, 46.3432, 16.9945, -73.9629
4377, 2700.00000, 2492.16, -2.95529, 2481.02, -122.357, 2471.28, 117.332, 17.0008, 165.735, 17.0774, 46.3329, 17.1448, -73.9781
4378, 0.00000, 2491.18, -2.95651, 2479.99, -122.368, 2470.47, 117.317, 17.151, 165.734, 17.2286, 46.3225, 17.2952, -73.9932
4378, 900.00000, 2490.21, -2.95771, 2478.97, -122.378, 2469.66, 117.302, 17.3013, 165.732, 17.38, 46.3122, 17.4456, -74.0084
4378, 1800.00000, 2489.16, -2.97047, 2478.32, -122.386, 2468.75, 117.289, 17.4523, 165.72, 17.5291, 46.304, 17.5967, -74.0207
4378, 2700.00000, 2488.12, -2.983, 2477.69, -122.394, 2467.85, 117.277, 17.5872, 165.707, 17.6617, 46.2961, 17.7317, -74.0327
4379, 0.00000, 2487.08, -2.99567, 2477.06, -122.402, 2466.93, 117.265, 17.7228, 165.694, 17.7946, 46.2884, 17.868, -74.0452
4379, 900.00000, 2486.05, -3.00813, 2476.42, -122.41, 2466.04, 117.253, 17.8571, 165.682, 17.927, 46.2804, 18.0021, -74.0573
4379, 1800.00000, 2484.98, -3.02559, 2475.86, -122.419, 2465.09, 117.239, 17.9924, 165.664, 18.0594, 46.2711, 18.1377, -74.0709
4379, 2700.00000, 2483.92, -3.04287, 2475.3, -122.428, 2464.15, 117.226, 18.1156, 165.647, 18.1793, 46.2619, 18.261, -74.0843
4380, 0.00000, 2482.86, -3.06015, 2474.74, -122.437, 2463.21, 117.212, 18.2389, 165.63, 18.2994, 46.2527, 18.3845, -74.0977
4380, 900.00000, 2481.8, -3.07743, 2474.18, -122.447, 2462.27, 117.199, 18.3622, 165.613, 18.4194, 46.2435, 18.508, -74.1112
4380, 1800.00000, 2479.73, -3.10719, 2488.98, -122.478, 2461.15, 117.19, 18.4944, 165.583, 18.4262, 46.2122, 18.6332, -74.1201
4380, 2700.00000, 2494.5, -3.11716, 2503.83, -122.482, 2491.21, 117.17, 18.5462, 165.573, 18.477, 46.2082, 18.5702, -74.1404
4381, 0.00000, 2492.83, -3.14692, 2503.05, -122.497, 2489.84, 117.151, 18.7184, 165.543, 18.6432, 46.193, 18.7412, -74.159
4381, 900.00000, 2491.15, -3.17682, 2502.28, -122.512, 2488.47, 117.132, 18.8926, 165.513, 18.8099, 46.1778, 18.9133, -74.1775
4381, 1800.00000, 2489.51, -3.20782, 2501.56, -122.529, 2487.2, 117.114, 19.0667, 165.482, 18.9762, 46.1615, 19.0849, -74.1958
4381, 2700.00000, 2487.89, -3.23856, 2500.86, -122.545, 2485.94, 117.096, 19.2227, 165.451, 19.1243, 46.1455, 19.2382, -74.2138
4382, 0.00000, 2486.26, -3.26932, 2500.15, -122.561, 2484.67, 117.078, 19.3788, 165.421, 19.2725, 46.1294, 19.3916, -74.2318
4382, 900.00000, 2484.63, -3.30009, 2499.45, -122.577, 2483.41, 117.06, 19.5352, 165.39, 19.4207, 46.1134, 19.5453, -74.2498
4382, 1800.00000, 2483.21, -3.32948, 2498.92, -122.591, 2482.36, 117.047, 19.6903, 165.361, 19.5678, 46.0995, 19.6976, -74.2631
4382, 2700.00000, 2481.82, -3.3584, 2498.41, -122.604, 2481.32, 117.034, 19.8146, 165.332, 19.6843, 46.086, 19.819, -74.2759
4383, 0.00000, 2480.42, -3.38733, 2497.9, -122.618, 2480.29, 117.021, 19.9391, 165.303, 19.8008, 46.0725, 19.9406, -74.2887
4383, 900.00000, 2479.02, -3.41628, 2497.39, -122.631, 2479.26, 117.008, 20.0637, 165.274, 19.9174, 46.059, 20.0622, -74.3015
4383, 1800.00000, 2477.54, -3.45491, 2497.07, -122.648, 2478.29, 116.996, 20.1889, 165.235, 20.0327, 46.0423, 20.1835, -74.3137
4383, 2700.00000, 2476.09, -3.49304, 2496.77, -122.664, 2477.34, 116.985, 20.2788, 165.197, 20.1125, 46.0261, 20.2692, -74.3253
4384, 0.00000, 2474.63, -3.5312, 2496.47, -122.68, 2476.39, 116.973, 20.3688, 165.159, 20.1923, 46.0099, 20.355, -74.3369
4384, 900.00000, 2473.16, -3.5694, 2496.17, -122.696, 2475.44, 116.961, 20.4589, 165.121, 20.2721, 45.9937, 20.4408, -74.3485
4384, 1800.00000, 2486.92, -3.63266, 2496.67, -122.704, 2474.53, 116.96, 20.4265, 165.057, 20.3446, 45.9865, 20.5275, -74.3501
4384, 2700.00000, 2485.8, -3.67265, 2496.83, -122.718, 2474.06, 116.957, 20.4364, 165.017, 20.3482, 45.9722, 20.5342, -74.3529
4385, 0.00000, 2484.68, -3.71299, 2497, -122.732, 2473.59, 116.954, 20.4492, 164.977, 20.3504, 45.958, 20.5416, -74.3556
4385, 900.00000, 2483.55, -3.75337, 2497.17, -122.746, 2473.13, 116.952, 20.462, 164.937, 20.3526, 45.9438, 20.5491, -74.3583
4385, 1800.00000, 2482.26, -3.82013, 2497.92, -122.767, 2472.74, 116.949, 20.4759, 164.87, 20.3508, 45.9226, 20.5557, -74.3611
4385, 2700.00000, 2481.35, -3.87517, 2498.9, -122.778, 2472.62, 116.958, 20.3976, 164.815, 20.2572, 45.912, 20.4704, -74.352
4386, 0.00000, 2480.44, -3.93021, 2499.88, -122.789, 2472.51, 116.967, 20.3186, 164.76, 20.1635, 45.9014, 20.3847, -74.3429
4386, 900.00000, 2479.53, -3.98532, 2500.87, -122.799, 2472.39, 116.976, 20.2397, 164.705, 20.0699, 45.8907, 20.2991, -74.3337
4386, 1800.00000, 2479.09, -4.03751, 2502.22, -122.806, 2472.65, 116.991, 20.1574, 164.652, 19.9737, 45.8839, 20.2107, -74.3189
4386, 2700.00000, 2478.68, -4.08867, 2503.61, -122.812, 2472.95, 117.007, 20.0089, 164.601, 19.8124, 45.878, 20.0561, -74.3031
4387, 0.00000, 2491.08, -4.27626, 2506.51, -122.83, 2487.07, 117.023, 19.7588, 164.414, 19.6364, 45.8603, 19.792, -74.2866
4387, 900.00000, 2492.64, -4.24991, 2507.26, -122.816, 2488.35, 117.041, 19.5979, 164.44, 19.4817, 45.8744, 19.6311, -74.2688
4387, 1800.00000, 2493.17, -4.23913, 2507.48, -122.812, 2488.93, 117.05, 19.4413, 164.451, 19.3298, 45.8784, 19.4746, -74.2603
4387, 2700.00000, 2493.65, -4.23001, 2507.66, -122.809, 2489.45, 117.057, 19.3822, 164.46, 19.2734, 45.8812, 19.415, -74.2531
4388, 0.00000, 2494.12, -4.2209, 2507.84, -122.806, 2489.97, 117.064, 19.3232, 164.469, 19.2169, 45.8839, 19.3555, -74.246
4388, 900.00000, 2494.6, -4.2118, 2508.02, -122.803, 2490.49, 117.071, 19.2641, 164.478, 19.1605, 45.8867, 19.296, -74.2388
4388, 1800.00000, 2496.35, -4.18378, 2508.82, -122.788, 2491.77, 117.087, 19.1945, 164.506, 19.0995, 45.9022, 19.2301, -74.2226
4388, 2700.00000, 2498.11, -4.15501, 2509.7, -122.771, 2493.08, 117.105, 19.0193, 164.535, 18.9294, 45.9193, 19.0568, -74.2046
4389, 0.00000, 2499.89, -4.12549, 2510.57, -122.754, 2494.44, 117.124, 18.8395, 164.565, 18.7593, 45.9359, 18.8803, -74.1862
4389, 900.00000, 2501.7, -4.09588, 2511.42, -122.737, 2495.77, 117.141, 18.6615, 164.594, 18.5897, 45.953, 18.7062, -74.1685
4389, 1800.00000, 2505.69, -4.03305, 2513.37, -122.699, 2498.57, 117.178, 18.4688, 164.657, 18.4119, 45.9907, 18.5213, -74.1319
4389, 2700.00000, 2510.01, -3.97455, 2500, -122.643, 2485.72, 117.225, 18.0688, 164.716, 18.1395, 46.0475, 18.2446, -74.0852
4390, 0.00000, 2498.91, -3.8892, 2501.71, -122.611, 2489.01, 117.263, 17.7774, 164.801, 17.7596, 46.0796, 17.8491, -74.0467
4390, 900.00000, 2502.96, -3.82362, 2503.75, -122.57, 2491.9, 117.303, 17.3809, 164.867, 17.3749, 46.1201, 17.4579, -74.0072
4390, 1800.00000, 2506.93, -3.75909, 2505.72, -122.531, 2494.74, 117.341, 16.984, 164.931, 16.9926, 46.1595, 17.0673, -73.9685
4390, 2700.00000, 2510.85, -3.69537, 2507.69, -122.491, 2497.56, 117.38, 16.6017, 164.995, 16.6222, 46.1987, 16.6899, -73.9298
4391, 0.00000, 2499.41, -3.61317, 2509.39, -122.461, 2500.79, 117.419, 16.3184, 165.077, 16.2552, 46.229, 16.3102, -73.8913
4391, 900.00000, 2503.12, -3.55874, 2511.8, -122.421, 2487.88, 117.473, 15.9383, 165.131, 15.8825, 46.2695, 16.0348, -73.837
4391, 1800.00000, 2489.8, -3.52996, 2497.58, -122.402, 2474.12, 117.49, 15.6639, 165.16, 15.6149, 46.2877, 15.7632, -73.8195
4391, 2700.00000, 2492.71, -3.4824, 2499.07, -122.373, 2476.21, 117.52, 15.38, 165.208, 15.3386, 46.3175, 15.4816, -73.7902
4392, 0.00000, 2495.62, -3.43458, 2500.57, -122.343, 2478.3, 117.549, 15.0945, 165.256, 15.0624, 46.3471, 15.199, -73.761
