hour,t(sec),"P1 (kW)","Q1 (kvar)","P2 (kW)","Q2 (kvar)","P3 (kW)","Q3 (kvar)"
0, 900.00000, -1062.97, -369.419, -718.396, -201.167, -893.379, -254.806
0, 1800.00000, -1215.61, -410.376, -870.011, -237.652, -1046.01, -292.724
0, 2700.00000, -1213.14, -405.268, -868.167, -233.311, -1043.75, -288.173
1, 0.00000, -1204.66, -400.269, -862.271, -229.86, -1036.46, -284.247
1, 900.00000, -1196.18, -395.277, -856.378, -226.413, -1029.17, -280.325
1, 1800.00000, -1191.18, -392.428, -852.833, -224.563, -1024.42, -277.933
1, 2700.00000, -1186.74, -389.756, -849.818, -222.863, -1020.21, -275.701
2, 0.00000, -1182.3, -387.088, -846.805, -221.164, -1016.01, -273.47
2, 900.00000, -1177.85, -384.422, -843.792, -219.466, -1011.8, -271.24
2, 1800.00000, -1175.68, -383.242, -842.203, -218.687, -1009.69, -270.223
2, 2700.00000, -1173.93, -382.197, -841.024, -218.023, -1008.01, -269.328
3, 0.00000, -1172.18, -381.152, -839.846, -217.36, -1006.33, -268.434
3, 900.00000, -1170.44, -380.108, -838.669, -216.696, -1004.65, -267.54
3, 1800.00000, -1174.59, -382.741, -841.409, -218.664, -1007.53, -269.356
3, 2700.00000, -1179.73, -385.686, -845.096, -220.896, -1011.37, -271.451
4, 0.00000, -1184.87, -388.635, -848.784, -223.13, -1015.22, -273.549
4, 900.00000, -1190.02, -391.586, -852.471, -225.365, -1019.07, -275.647
4, 1800.00000, -1203.4, -399.665, -861.653, -231.312, -1029.17, -281.482
4, 2700.00000, -1218.13, -408.192, -872.145, -237.635, -1040.62, -287.712
5, 0.00000, -1232.87, -416.737, -882.637, -243.968, -1052.06, -293.952
5, 900.00000, -1247.61, -425.297, -893.128, -250.309, -1063.51, -300.2
5, 1800.00000, -1274.18, -441.138, -911.617, -262.174, -1083.2, -311.477
5, 2700.00000, -1308.83, -457.61, -936.189, -273.827, -1109.9, -322.774
6, 0.00000, -1337.13, -474.093, -956.476, -286.286, -1131.36, -334.624
6, 900.00000, -1365.47, -490.664, -976.766, -298.786, -1152.85, -346.519
6, 1800.00000, -1381.56, -499.58, -988.845, -305.668, -1165.25, -352.921
6, 2700.00000, -1402.58, -508.126, -1003.69, -311.42, -1181.34, -358.394
7, 0.00000, -1416.63, -516.359, -1013.9, -317.776, -1191.79, -364.219
7, 900.00000, -1430.96, -524.774, -1024.15, -324.172, -1202.36, -370.115
7, 1800.00000, -1386.8, -519.569, -1003.53, -323.79, -1181.37, -369.575
7, 2700.00000, -1363.72, -517.544, -989.935, -323.615, -1167.68, -369.312
8, 0.00000, -1343.04, -515.571, -978.815, -323.49, -1156.41, -369.064
8, 900.00000, -1322.39, -513.659, -967.693, -323.372, -1145.15, -368.818
8, 1800.00000, -1304.93, -510.764, -958.105, -322.266, -1134.97, -367.444
8, 2700.00000, -1287.08, -507.785, -948.09, -321.038, -1124.4, -365.952
9, 0.00000, -1269.25, -504.845, -938.071, -319.814, -1113.83, -364.462
9, 900.00000, -1251.44, -501.947, -928.051, -318.596, -1103.26, -362.974
9, 1800.00000, -1244.38, -501.082, -924.613, -318.538, -1099.29, -362.567
9, 2700.00000, -1237.57, -500.31, -921.368, -318.534, -1095.55, -362.238
10, 0.00000, -1230.77, -499.545, -918.124, -318.53, -1091.82, -361.909
10, 900.00000, -1223.97, -498.788, -914.879, -318.527, -1088.1, -361.58
10, 1800.00000, -1219.12, -497.067, -911.791, -317.496, -1084.36, -360.271
10, 2700.00000, -1213.93, -495.243, -908.347, -316.36, -1080.29, -358.865
11, 0.00000, -1208.74, -493.421, -904.903, -315.224, -1076.23, -357.46
11, 900.00000, -1203.54, -491.6, -901.458, -314.088, -1072.16, -356.055
11, 1800.00000, -1200.23, -489.882, -899.349, -313.025, -1069.25, -354.617
11, 2700.00000, -1196.9, -488.161, -897.218, -311.955, -1066.32, -353.176
12, 0.00000, -1193.57, -486.442, -895.088, -310.886, -1063.4, -351.735
12, 900.00000, -1190.24, -484.723, -892.958, -309.817, -1060.47, -350.294
12, 1800.00000, -1192.48, -484.174, -892.875, -309.191, -1059.88, -349.433
12, 2700.00000, -1194.93, -483.694, -892.974, -308.613, -1059.51, -348.642
13, 0.00000, -1197.38, -483.217, -893.074, -308.036, -1059.15, -347.852
13, 900.00000, -1199.83, -482.74, -893.173, -307.459, -1058.78, -347.061
13, 1800.00000, -1206.68, -483.288, -896.173, -307.47, -1061.64, -347.012
13, 2700.00000, -1213.7, -483.9, -899.332, -307.526, -1064.67, -347.017
14, 0.00000, -1220.73, -484.519, -902.492, -307.583, -1067.71, -347.022
14, 900.00000, -1227.76, -485.146, -905.652, -307.64, -1070.75, -347.027
14, 1800.00000, -1244.9, -487.404, -915.463, -308.221, -1081.54, -348.196
14, 2700.00000, -1262.33, -489.788, -925.508, -308.871, -1092.61, -349.459
15, 0.00000, -1279.78, -492.209, -935.553, -309.526, -1103.69, -350.725
15, 900.00000, -1297.25, -494.668, -945.596, -310.186, -1114.78, -351.995
15, 1800.00000, -1329.21, -503.894, -964.263, -315.158, -1136.33, -358.191
15, 2700.00000, -1375.57, -515.458, -987.203, -320.458, -1162.2, -364.707
16, 0.00000, -1404.38, -524.641, -1007.73, -326.07, -1185.58, -371.521
16, 900.00000, -1450.42, -536.306, -1037.87, -332.447, -1218.72, -379.127
16, 1800.00000, -1481.58, -555.947, -1058.75, -345.942, -1244.92, -394.306
16, 2700.00000, -1523.12, -577.172, -1087.61, -359.96, -1280.14, -410.27
17, 0.00000, -1557.28, -597.98, -1111.52, -374.463, -1309.36, -426.481
17, 900.00000, -1591.49, -618.922, -1135.43, -389.02, -1338.62, -442.769
17, 1800.00000, -1610.57, -625.597, -1149.55, -392.992, -1355.43, -447.652
17, 2700.00000, -1618.05, -630.231, -1154.8, -396.15, -1362.15, -451.389
18, 0.00000, -1625.69, -634.971, -1160.09, -399.331, -1368.97, -455.18
18, 900.00000, -1633.32, -639.716, -1165.38, -402.513, -1375.8, -458.974
18, 1800.00000, -1628.7, -636.464, -1162.49, -400.054, -1372.83, -456.791
18, 2700.00000, -1622.03, -632.459, -1157.67, -396.996, -1367.85, -453.965
19, 0.00000, -1615.33, -628.445, -1152.85, -393.937, -1362.87, -451.133
19, 900.00000, -1608.63, -624.433, -1148.03, -390.879, -1357.88, -448.303
19, 1800.00000, -1599.15, -618.606, -1141.37, -386.562, -1350.63, -444.102
19, 2700.00000, -1589.2, -612.613, -1134.25, -382.112, -1342.92, -439.756
20, 0.00000, -1579.24, -606.624, -1127.14, -377.664, -1335.2, -435.412
20, 900.00000, -1569.28, -600.64, -1120.03, -373.221, -1327.48, -431.071
20, 1800.00000, -1552.79, -590.447, -1108.64, -365.847, -1314.62, -423.62
20, 2700.00000, -1535.36, -579.969, -1096.25, -358.188, -1300.78, -415.88
21, 0.00000, -1517.92, -569.509, -1083.87, -350.54, -1286.94, -408.152
21, 900.00000, -1500.47, -559.07, -1071.48, -342.905, -1273.09, -400.434
21, 1800.00000, -1476.88, -544.727, -1055.03, -332.513, -1254.39, -389.798
21, 2700.00000, -1452.32, -530.1, -1037.63, -321.866, -1234.73, -378.891
22, 0.00000, -1427.74, -515.509, -1020.24, -311.242, -1215.06, -368.007
22, 900.00000, -1403.16, -500.957, -1002.83, -300.64, -1195.4, -357.144
22, 1800.00000, -1378.23, -486.22, -985.243, -289.961, -1175.28, -346.058
22, 2700.00000, -1353.25, -471.508, -967.606, -279.294, -1155.12, -334.983
23, 0.00000, -1328.25, -456.835, -949.963, -268.649, -1134.95, -323.93
23, 900.00000, -1303.23, -442.199, -932.315, -258.028, -1114.78, -312.9
23, 1800.00000, -1285.62, -432.226, -919.592, -250.765, -1100.23, -305.255
23, 2700.00000, -1269.28, -422.686, -908.036, -243.839, -1086.9, -297.983
24, 0.00000, -1252.82, -413.113, -896.455, -236.919, -1073.5, -290.695
