hour,t(sec),V1,VAngle1,V2,VAngle2,V3,VAngle3,I1,IAngle1,I2,IAngle2,I3,IAngle3
0, 900.00000, 2485.6, -3.2, 2491.56, -122.225, 2492.94, 117.784, 14.3263, 150.23, 14.2521, 31.1986, 0.00106567, 32.0363
0, 1800.00000, 2480.63, -3.33761, 2486.86, -122.357, 2488.76, 117.648, 14.2156, 150.093, 14.1417, 31.0666, 0.00106384, 31.8982
0, 2700.00000, 2481.86, -3.31771, 2487.48, -122.345, 2489.69, 117.661, 14.1029, 150.113, 14.0292, 31.0788, 0.00106422, 31.9144
1, 0.00000, 2483.09, -3.29766, 2488.11, -122.333, 2490.63, 117.674, 13.9896, 150.133, 13.9166, 31.091, 0.0010646, 31.9307
1, 900.00000, 2484.32, -3.27761, 2488.73, -122.321, 2491.56, 117.687, 13.8763, 150.153, 13.804, 31.1031, 0.00106498, 31.9471
1, 1800.00000, 2484.96, -3.26617, 2489.04, -122.316, 2492.16, 117.696, 13.8066, 150.165, 13.7361, 31.1087, 0.00106521, 31.957
1, 2700.00000, 2485.58, -3.25532, 2489.34, -122.311, 2492.73, 117.704, 13.7372, 150.176, 13.6681, 31.1139, 0.00106543, 31.9665
2, 0.00000, 2486.2, -3.24448, 2489.63, -122.306, 2493.31, 117.712, 13.6677, 150.187, 13.6002, 31.119, 0.00106565, 31.9759
2, 900.00000, 2486.82, -3.23365, 2489.93, -122.301, 2493.89, 117.72, 13.5983, 150.198, 13.5323, 31.1242, 0.00106588, 31.9854
2, 1800.00000, 2487.07, -3.22905, 2490.06, -122.298, 2494.13, 117.724, 13.5686, 150.202, 13.5046, 31.1265, 0.00106597, 31.9896
2, 2700.00000, 2487.33, -3.22455, 2490.17, -122.296, 2494.36, 117.727, 13.5389, 150.207, 13.4769, 31.1286, 0.00106606, 31.9934
3, 0.00000, 2487.56, -3.22047, 2490.29, -122.294, 2494.59, 117.731, 13.5095, 150.211, 13.4492, 31.1306, 0.00106615, 31.9971
3, 900.00000, 2487.79, -3.21633, 2490.41, -122.292, 2494.82, 117.734, 13.48, 150.215, 13.4215, 31.1325, 0.00106624, 32.0009
3, 1800.00000, 2487.04, -3.22718, 2490.03, -122.301, 2494.41, 117.729, 13.5304, 150.204, 13.4759, 31.1243, 0.00106606, 31.9933
3, 2700.00000, 2486.24, -3.2391, 2489.61, -122.31, 2493.97, 117.723, 13.5813, 150.192, 13.5303, 31.1153, 0.00106586, 31.9847
4, 0.00000, 2485.44, -3.25102, 2489.2, -122.319, 2493.53, 117.718, 13.6321, 150.18, 13.5847, 31.1062, 0.00106567, 31.9761
4, 900.00000, 2484.64, -3.26294, 2488.79, -122.328, 2493.08, 117.712, 13.6829, 150.168, 13.6391, 31.0971, 0.00106547, 31.9676
4, 1800.00000, 2482.45, -3.29571, 2487.66, -122.351, 2491.78, 117.695, 13.8422, 150.135, 13.8053, 31.0734, 0.00106491, 31.9434
4, 2700.00000, 2480.2, -3.32997, 2486.49, -122.376, 2490.42, 117.677, 14.0021, 150.101, 13.9715, 31.0485, 0.00106432, 31.9178
5, 0.00000, 2477.91, -3.36483, 2485.33, -122.4, 2489.06, 117.659, 14.1631, 150.066, 14.1378, 31.0236, 0.00106373, 31.8922
5, 900.00000, 2475.67, -3.39883, 2484.16, -122.425, 2487.71, 117.641, 14.322, 150.031, 14.3041, 30.9986, 0.00106315, 31.8667
5, 1800.00000, 2471.38, -3.46215, 2481.9, -122.473, 2485.29, 117.609, 14.6207, 149.968, 14.6119, 30.9504, 0.00106208, 31.8205
5, 2700.00000, 2467.03, -3.5271, 2479.58, -122.522, 2482.81, 117.576, 14.9187, 149.902, 14.9196, 30.9006, 0.00106099, 31.7727
6, 0.00000, 2462.68, -3.5922, 2477.26, -122.571, 2480.32, 117.543, 15.2169, 149.837, 15.2274, 30.8509, 0.00105989, 31.7245
6, 900.00000, 2489.67, -3.65612, 2491.05, -122.599, 2493.55, 117.525, 15.4996, 149.773, 15.5275, 30.8226, 0.00106654, 31.761
6, 1800.00000, 2487.38, -3.69008, 2489.81, -122.627, 2492.31, 117.508, 15.6386, 149.739, 15.6748, 30.7952, 0.00106598, 31.7359
6, 2700.00000, 2485.15, -3.72247, 2488.64, -122.652, 2491.13, 117.492, 15.7789, 149.706, 15.8223, 30.7696, 0.00106545, 31.7126
7, 0.00000, 2482.92, -3.75487, 2487.46, -122.677, 2489.95, 117.477, 15.9191, 149.674, 15.9698, 30.7439, 0.00106492, 31.6892
7, 900.00000, 2480.69, -3.78728, 2486.29, -122.703, 2488.77, 117.461, 16.0594, 149.641, 16.1173, 30.7183, 0.00106439, 31.6659
7, 1800.00000, 2486.24, -3.56311, 2484.56, -122.642, 2491.58, 117.474, 16.0693, 149.865, 16.1297, 30.7788, 0.00106497, 31.7388
7, 2700.00000, 2488.6, -3.46616, 2483.91, -122.613, 2492.81, 117.485, 16.0803, 149.962, 16.1412, 30.808, 0.00106524, 31.7738
8, 0.00000, 2490.9, -3.37116, 2483.22, -122.586, 2494.02, 117.493, 16.0904, 150.057, 16.1532, 30.8351, 0.00106549, 31.8068
8, 900.00000, 2493.19, -3.27637, 2482.53, -122.559, 2495.22, 117.502, 16.1006, 150.152, 16.1652, 30.8621, 0.00106575, 31.8396
8, 1800.00000, 2495.24, -3.2009, 2482.22, -122.536, 2496.4, 117.512, 16.0693, 150.228, 16.1367, 30.8853, 0.00106605, 31.8685
8, 2700.00000, 2497.33, -3.12455, 2481.91, -122.512, 2497.61, 117.522, 16.0371, 150.304, 16.1085, 30.9088, 0.00106637, 31.8979
9, 0.00000, 2499.37, -3.04926, 2481.63, -122.489, 2498.8, 117.533, 16.0069, 150.379, 16.0792, 30.9324, 0.00106668, 31.927
9, 900.00000, 2486.36, -2.95167, 2480.99, -122.473, 2500.38, 117.541, 15.9815, 150.477, 16.0513, 30.948, 0.00106611, 31.8884
9, 1800.00000, 2487.15, -2.91791, 2480.7, -122.466, 2500.9, 117.544, 15.976, 150.511, 16.0439, 30.9554, 0.00106622, 31.9
9, 2700.00000, 2487.94, -2.88422, 2480.4, -122.459, 2501.42, 117.547, 15.9697, 150.544, 16.0369, 30.9626, 0.00106633, 31.9113
10, 0.00000, 2488.72, -2.85056, 2480.1, -122.451, 2501.95, 117.55, 15.9634, 150.578, 16.0299, 30.9698, 0.00106644, 31.9227
10, 900.00000, 2489.51, -2.81692, 2479.8, -122.444, 2502.47, 117.553, 15.9571, 150.612, 16.0229, 30.977, 0.00106656, 31.9341
10, 1800.00000, 2490.1, -2.80185, 2479.92, -122.439, 2502.91, 117.559, 15.9176, 150.627, 15.9839, 30.9826, 0.00106671, 31.9424
10, 2700.00000, 2490.7, -2.78648, 2480.05, -122.433, 2503.36, 117.564, 15.8781, 150.642, 15.9447, 30.9885, 0.00106687, 31.9511
11, 0.00000, 2491.3, -2.77111, 2480.18, -122.427, 2503.82, 117.57, 15.8386, 150.658, 15.9055, 30.9945, 0.00106702, 31.9598
11, 900.00000, 2491.91, -2.75575, 2480.31, -122.421, 2504.27, 117.575, 15.7991, 150.673, 15.8663, 31.0004, 0.00106718, 31.9685
11, 1800.00000, 2492.35, -2.74635, 2480.46, -122.418, 2504.68, 117.58, 15.7553, 150.682, 15.8231, 31.0039, 0.00106733, 31.9751
11, 2700.00000, 2492.79, -2.73695, 2480.61, -122.414, 2505.08, 117.586, 15.7115, 150.692, 15.7799, 31.0075, 0.00106748, 31.9817
12, 0.00000, 2493.01, -2.73515, 2481.18, -122.411, 2490.03, 117.609, 15.6679, 150.694, 15.7365, 31.0107, 0.00106243, 32.0213
12, 900.00000, 2493.45, -2.72577, 2481.33, -122.407, 2490.43, 117.614, 15.624, 150.703, 15.6934, 31.0143, 0.00106258, 32.0278
12, 1800.00000, 2493.18, -2.74235, 2481.77, -122.407, 2490.42, 117.622, 15.5975, 150.687, 15.6683, 31.015, 0.00106265, 32.0291
12, 2700.00000, 2492.89, -2.75919, 2482.22, -122.406, 2490.41, 117.63, 15.5713, 150.67, 15.643, 31.0156, 0.00106271, 32.0301
13, 0.00000, 2492.6, -2.77603, 2482.66, -122.406, 2490.39, 117.637, 15.545, 150.653, 15.6178, 31.0161, 0.00106277, 32.0311
13, 900.00000, 2492.31, -2.79289, 2483.11, -122.405, 2490.38, 117.645, 15.5188, 150.636, 15.5925, 31.0166, 0.00106284, 32.0321
13, 1800.00000, 2491.52, -2.82637, 2483.45, -122.412, 2490, 117.646, 15.5147, 150.603, 15.5875, 31.0097, 0.00106278, 32.0238
13, 2700.00000, 2490.71, -2.86008, 2483.79, -122.419, 2489.62, 117.648, 15.5107, 150.569, 15.5824, 31.0025, 0.00106272, 32.0154
14, 0.00000, 2489.91, -2.89382, 2484.13, -122.427, 2489.24, 117.649, 15.5068, 150.535, 15.5774, 30.9954, 0.00106266, 32.0069
14, 900.00000, 2489.1, -2.92758, 2484.47, -122.434, 2488.86, 117.65, 15.5029, 150.501, 15.5723, 30.9882, 0.0010626, 31.9985
14, 1800.00000, 2487.27, -3.00046, 2484.86, -122.454, 2487.67, 117.638, 15.5319, 150.428, 15.5997, 30.9675, 0.0010623, 31.9694
14, 2700.00000, 2485.41, -3.0738, 2485.24, -122.475, 2486.46, 117.626, 15.5614, 150.355, 15.6269, 30.9465, 0.001062, 31.94
15, 0.00000, 2483.55, -3.14726, 2485.63, -122.496, 2485.26, 117.614, 15.5909, 150.282, 15.6541, 30.9255, 0.00106169, 31.9105
15, 900.00000, 2481.68, -3.22085, 2486.02, -122.517, 2484.06, 117.602, 15.6204, 150.208, 15.6814, 30.9044, 0.00106139, 31.881
15, 1800.00000, 2477.61, -3.34546, 2485.72, -122.563, 2481.36, 117.57, 15.7991, 150.083, 15.8524, 30.8591, 0.00106053, 31.8212
15, 2700.00000, 2471.78, -3.54019, 2486.69, -122.61, 2477.95, 117.558, 15.9778, 149.888, 16.0232, 30.8117, 0.00105963, 31.7561
16, 0.00000, 2468.29, -3.63741, 2485.63, -122.66, 2475.45, 117.511, 16.156, 149.791, 16.1947, 30.7611, 0.00105872, 31.692
16, 900.00000, 2462.74, -3.81776, 2484.8, -122.74, 2471.81, 117.448, 16.3346, 149.61, 16.3666, 30.6805, 0.00105751, 31.5941
16, 1800.00000, 2472.75, -3.91503, 2482.66, -122.78, 2467.9, 117.402, 16.7853, 149.513, 16.8138, 30.6401, 0.00105694, 31.5995
16, 2700.00000, 2467.72, -3.99426, 2480.06, -122.83, 2464.27, 117.351, 17.2423, 149.433, 17.2624, 30.5893, 0.00105543, 31.5346
17, 0.00000, 2462.92, -4.06653, 2477.08, -122.879, 2475.85, 117.281, 17.7002, 149.36, 17.711, 30.5395, 0.00105904, 31.4378
17, 900.00000, 2489.16, -4.14352, 2490.68, -122.906, 2487.88, 117.248, 18.1407, 149.283, 18.1501, 30.5123, 0.00106528, 31.4591
17, 1800.00000, 2487.91, -4.16492, 2490.01, -122.92, 2486.89, 117.233, 18.2492, 149.261, 18.2562, 30.4987, 0.00106487, 31.4405
17, 2700.00000, 2486.79, -4.18289, 2489.46, -122.93, 2486.01, 117.22, 18.3585, 149.243, 18.3625, 30.4884, 0.00106451, 31.4254
18, 0.00000, 2485.68, -4.20084, 2488.91, -122.94, 2485.12, 117.208, 18.4677, 149.225, 18.4688, 30.478, 0.00106416, 31.4104
18, 900.00000, 2484.56, -4.2188, 2488.36, -122.95, 2484.24, 117.196, 18.5769, 149.207, 18.575, 30.4677, 0.0010638, 31.3953
18, 1800.00000, 2485.52, -4.20606, 2488.86, -122.94, 2484.72, 117.201, 18.5106, 149.22, 18.5053, 30.478, 0.00106402, 31.4042
18, 2700.00000, 2486.57, -4.19099, 2489.41, -122.928, 2485.27, 117.209, 18.443, 149.235, 18.4354, 30.4901, 0.00106427, 31.4152
19, 0.00000, 2487.63, -4.17591, 2489.97, -122.916, 2485.83, 117.216, 18.3753, 149.25, 18.3655, 30.5021, 0.00106453, 31.4262
19, 900.00000, 2488.68, -4.16083, 2490.52, -122.904, 2486.38, 117.223, 18.3076, 149.265, 18.2956, 30.5141, 0.00106478, 31.4372
19, 1800.00000, 2490.21, -4.13871, 2491.31, -122.888, 2487.26, 117.235, 18.1994, 149.288, 18.1849, 30.5307, 0.00106516, 31.4537
19, 2700.00000, 2491.75, -4.11607, 2492.11, -122.871, 2488.15, 117.246, 18.091, 149.31, 18.0741, 30.5476, 0.00106555, 31.4706
20, 0.00000, 2493.3, -4.09342, 2492.91, -122.854, 2489.04, 117.258, 17.9825, 149.333, 17.9633, 30.5646, 0.00106594, 31.4876
20, 900.00000, 2494.84, -4.07079, 2493.7, -122.837, 2489.93, 117.27, 17.874, 149.356, 17.8525, 30.5815, 0.00106634, 31.5046
20, 1800.00000, 2497.46, -4.0322, 2495.04, -122.81, 2491.53, 117.291, 17.6758, 149.395, 17.651, 30.6092, 0.00106702, 31.5339
20, 2700.00000, 2500.18, -3.99147, 2496.39, -122.782, 2493.17, 117.313, 17.475, 149.436, 17.4494, 30.6377, 0.00106773, 31.5645
21, 0.00000, 2487.89, -3.93062, 2497.41, -122.761, 2495.17, 117.332, 17.2832, 149.496, 17.2485, 30.6589, 0.00106755, 31.528
21, 900.00000, 2490.55, -3.89072, 2498.77, -122.733, 2496.81, 117.354, 17.0848, 149.537, 17.0466, 30.6875, 0.00106825, 31.5583
21, 1800.00000, 2494.19, -3.83596, 2500.66, -122.695, 2499.13, 117.385, 16.799, 149.592, 16.7587, 30.7258, 0.00106924, 31.6006
21, 2700.00000, 2498.27, -3.78014, 2486.85, -122.64, 2501.24, 117.408, 16.5126, 149.648, 16.4782, 30.7803, 0.00106977, 31.6903
22, 0.00000, 2486.63, -3.71175, 2488.82, -122.609, 2488.5, 117.456, 16.234, 149.716, 16.1909, 30.8117, 0.00106469, 31.6978
22, 900.00000, 2490.28, -3.65645, 2490.73, -122.57, 2490.81, 117.487, 15.9485, 149.772, 15.9027, 30.851, 0.00106567, 31.7405
22, 1800.00000, 2493.98, -3.5998, 2492.63, -122.532, 2493.2, 117.52, 15.6515, 149.829, 15.606, 30.8904, 0.00106669, 31.7843
22, 2700.00000, 2497.65, -3.54367, 2494.56, -122.493, 2495.58, 117.552, 15.3551, 149.886, 15.3092, 30.9296, 0.0010677, 31.8281
23, 0.00000, 2486.09, -3.46797, 2496.18, -122.462, 2498.34, 117.584, 15.0648, 149.961, 15.013, 30.961, 0.00106782, 31.804
23, 900.00000, 2489.71, -3.4122, 2498.11, -122.423, 2500.73, 117.616, 14.7688, 150.018, 14.716, 31.0001, 0.00106883, 31.8476
23, 1800.00000, 2492.11, -3.37466, 2499.41, -122.397, 2502.35, 117.64, 14.5689, 150.056, 14.5176, 31.0266, 0.00106952, 31.8776
23, 2700.00000, 2494.69, -3.34458, 2485.19, -122.357, 2488.15, 117.67, 14.3668, 150.086, 14.3254, 31.0668, 0.00106448, 31.9853
24, 0.00000, 2480.88, -3.32588, 2470.83, -122.344, 2473.91, 117.68, 14.1726, 150.105, 14.1339, 31.0798, 0.00105839, 31.9991
