hour,t(sec),"P1 (kW)","Q1 (kvar)","P2 (kW)","Q2 (kvar)","P3 (kW)","Q3 (kvar)"
0, 900.00000, 1.23682E-11, -8.88653E-12, -15.0951, -7.54755, 0, 0
0, 1800.00000, -2.48938E-11, 1.35506E-11, -14.9899, -7.49497, -4.10623E-12, 7.50156E-12
0, 2700.00000, -4.37029E-12, -4.0776E-12, -14.8854, -7.44268, 3.00112E-11, 1.64326E-11
1, 0.00000, -1.58074E-11, -2.9068E-11, -14.7808, -7.39037, -8.22014E-12, 1.5008E-11
1, 900.00000, -2.36812E-11, -1.18842E-11, -14.6761, -7.33806, -2.32345E-11, 6.78651E-12
1, 1800.00000, -2.18585E-11, -2.04158E-11, -14.623, -7.3115, -1.5012E-11, -8.22639E-12
1, 2700.00000, 3.26474E-12, 3.37531E-11, -14.5699, -7.28493, 3.00269E-11, 1.64576E-11
2, 0.00000, 1.05721E-11, -3.58476E-13, -14.5167, -7.25836, -1.91305E-11, -7.23733E-13
2, 900.00000, -1.39751E-11, -3.7637E-11, -14.4636, -7.23179, 1.4508E-12, -3.82664E-11
2, 1800.00000, -1.15739E-11, -2.92517E-11, -14.4365, -7.21825, 1.64692E-11, -3.0034E-11
2, 2700.00000, 1.14078E-12, 3.38406E-11, -14.4094, -7.20471, 2.17996E-11, 3.14887E-11
3, 0.00000, 4.94247E-12, 2.10093E-11, -14.3823, -7.19117, 1.50182E-11, 8.23652E-12
3, 900.00000, -2.62372E-11, -2.45303E-11, -14.3553, -7.17763, 1.91375E-11, 7.28125E-13
3, 1800.00000, 2.40031E-12, 8.38813E-12, -14.4088, -7.2044, 4.11787E-12, -7.50877E-12
3, 2700.00000, -1.54166E-12, 1.6987E-11, -14.4623, -7.23116, 8.23398E-12, -1.50163E-11
4, 0.00000, -1.05699E-11, 3.59163E-13, -14.5158, -7.25792, 0, 0
4, 900.00000, -1.12884E-11, -2.07751E-11, -14.5693, -7.28467, 1.7682E-11, 3.89817E-11
4, 1800.00000, -1.08525E-11, -8.08541E-12, -14.7355, -7.36774, -2.17954E-11, -3.14602E-11
4, 2700.00000, -8.29727E-12, 4.5158E-12, -14.9015, -7.45077, 1.23293E-11, -2.25097E-11
5, 0.00000, 1.04006E-11, -4.59013E-12, -15.0676, -7.53378, -1.08957E-11, -1.57155E-11
5, 900.00000, 1.56714E-11, -3.43346E-11, -15.2335, -7.61675, 1.49991E-11, 8.20867E-12
5, 1800.00000, -4.56549E-13, -1.26364E-11, -15.5747, -7.78736, -1.76864E-11, -3.88859E-11
5, 2700.00000, 1.69838E-11, 3.58824E-12, -15.9157, -7.95783, -4.09443E-12, 7.49274E-12
6, 0.00000, -1.43936E-11, 8.95536E-12, -16.2564, -8.12818, 8.17896E-12, -1.49787E-11
6, 900.00000, 4.19747E-12, -1.59878E-13, -16.5968, -8.29841, -6.80276E-12, -2.31409E-11
6, 1800.00000, 8.71229E-12, 8.06773E-12, -16.7597, -8.37981, -2.72196E-12, -3.06172E-11
6, 2700.00000, 2.19371E-11, 2.43431E-11, -16.9225, -8.46122, 2.58506E-11, 2.3802E-11
7, 0.00000, -6.12141E-12, 4.43555E-12, -17.0852, -8.5426, -1.36138E-11, -4.62339E-11
7, 900.00000, -2.38563E-11, -2.00308E-11, -17.2479, -8.62395, 5.41721E-12, -4.5547E-11
7, 1800.00000, 2.33823E-11, 7.55015E-12, -17.2532, -8.62658, 1.63258E-11, -2.9937E-11
7, 2700.00000, -2.20296E-11, -2.86566E-11, -17.264, -8.632, 1.22549E-11, -2.24584E-11
8, 0.00000, -4.48753E-12, -8.26277E-12, -17.2749, -8.63744, 1.63523E-11, -2.99523E-11
8, 900.00000, -1.54073E-11, -2.05492E-11, -17.2858, -8.64289, -1.22736E-11, 2.247E-11
8, 1800.00000, -7.88471E-12, 1.71019E-11, -17.2545, -8.62725, -4.09413E-12, 7.49184E-12
8, 2700.00000, 1.16272E-12, 3.79054E-11, -17.2232, -8.61157, 8.19412E-12, -1.49873E-11
9, 0.00000, 2.11979E-11, 3.58885E-12, -17.1918, -8.5959, 2.3191E-11, -6.79099E-12
9, 900.00000, -3.97207E-12, 8.55552E-12, -17.1618, -8.58089, 0, 0
9, 1800.00000, -1.63837E-11, 1.73539E-11, -17.1766, -8.5883, -1.08914E-11, -1.57036E-11
9, 2700.00000, -3.37439E-12, 2.96439E-11, -17.1911, -8.59556, 1.49957E-11, 8.20669E-12
10, 0.00000, -8.19659E-12, 8.67548E-12, -17.2055, -8.60276, -2.68675E-12, -3.07019E-11
10, 900.00000, -1.87442E-11, 8.97271E-12, -17.2202, -8.61011, 2.32045E-11, -6.79091E-12
10, 1800.00000, -2.92935E-11, 9.2695E-12, -17.1901, -8.59504, 4.10411E-12, -7.49929E-12
10, 2700.00000, 1.63521E-12, -1.6936E-11, -17.1598, -8.57992, 4.10479E-12, -7.49972E-12
11, 0.00000, 2.66192E-11, 4.57056E-11, -17.1296, -8.5648, 2.05274E-11, -3.75008E-11
11, 900.00000, -4.72255E-13, -1.68801E-11, -17.0994, -8.54968, -1.50012E-11, -8.21233E-12
11, 1800.00000, 1.16112E-11, 3.76896E-11, -17.0694, -8.53468, 4.10694E-12, -7.50106E-12
11, 2700.00000, -1.53606E-11, -2.06931E-11, -17.0394, -8.51968, 0, 0
12, 0.00000, -1.79407E-11, 3.85193E-11, -17.0094, -8.50469, 2.73294E-11, -1.42891E-11
12, 900.00000, 8.09256E-12, -1.28991E-11, -16.9794, -8.48969, 4.23376E-11, -6.07045E-12
12, 1800.00000, 5.74888E-12, -2.1285E-11, -16.9581, -8.47907, 1.91152E-11, 7.16636E-13
12, 2700.00000, -1.17333E-11, 3.41274E-11, -16.9369, -8.46845, 2.32263E-11, -6.78575E-12
13, 0.00000, -8.44482E-12, 2.33008E-13, -16.9157, -8.45784, 1.0896E-11, 1.57244E-11
13, 900.00000, -3.98994E-12, 8.56163E-12, -16.8944, -8.44722, 9.65907E-12, -5.32433E-11
13, 1800.00000, 4.68974E-12, 1.67726E-11, -16.8982, -8.44909, 0, 0
13, 2700.00000, 8.44322E-12, -2.36363E-13, -16.9034, -8.4517, 2.73404E-11, -1.42833E-11
14, 0.00000, 3.18949E-11, 7.54411E-12, -16.9083, -8.45418, -1.91152E-11, -7.22822E-13
14, 900.00000, 1.62534E-12, -1.69401E-11, -16.9133, -8.45664, -4.11237E-12, 7.50065E-12
14, 1800.00000, -2.05915E-11, 1.74932E-11, -16.9215, -8.46077, -2.32195E-11, 6.77583E-12
14, 2700.00000, 2.09473E-11, -4.85721E-12, -16.9285, -8.46425, 9.65192E-12, -5.3198E-11
15, 0.00000, 7.10067E-12, -4.23895E-11, -16.9355, -8.46776, 8.20892E-12, -1.49907E-11
15, 900.00000, 1.41301E-11, 4.5898E-11, -16.9425, -8.47128, 3.8177E-11, 1.4177E-12
15, 1800.00000, -7.14162E-13, -2.10216E-11, -17.0999, -8.54993, 8.18939E-12, -1.49796E-11
15, 2700.00000, 2.98434E-13, 8.39769E-12, -17.2574, -8.62871, 3.81201E-11, 1.3808E-12
16, 0.00000, -1.4198E-11, 1.31279E-11, -17.4176, -8.70881, -1.4962E-11, -8.16241E-12
16, 900.00000, 7.20843E-12, -2.96266E-11, -17.5753, -8.78764, 8.1457E-12, -1.49532E-11
16, 1800.00000, -5.02794E-12, -2.07235E-11, -18.0321, -9.01604, 1.62542E-11, -2.98872E-11
16, 2700.00000, 3.65394E-12, -1.26919E-11, -18.4896, -9.24482, -1.08778E-11, -1.55789E-11
17, 0.00000, 7.04596E-13, 1.6669E-11, -18.9468, -9.47342, 6.827E-12, 2.3021E-11
17, 900.00000, 4.16154E-12, -1.7928E-13, -19.4037, -9.70184, 8.08198E-12, -1.49142E-11
17, 1800.00000, -7.19942E-13, -1.66411E-11, -19.5035, -9.75174, -1.08726E-11, -1.55343E-11
17, 2700.00000, -4.97215E-12, -1.85349E-11, -19.6034, -9.80168, 0, 0
18, 0.00000, -2.27843E-11, -4.48285E-11, -19.7032, -9.8516, -6.83603E-12, -2.29782E-11
18, 900.00000, 1.19232E-11, -1.30159E-11, -19.8031, -9.90152, 1.0871E-11, 1.55199E-11
18, 1800.00000, -7.22615E-12, 2.53091E-11, -19.7215, -9.86077, 1.77081E-11, 3.84988E-11
18, 2700.00000, 5.42397E-12, -1.89862E-11, -19.6399, -9.81998, 6.83602E-12, 2.29798E-11
19, 0.00000, 4.88152E-12, 1.64597E-11, -19.5583, -9.77917, 2.29835E-11, -6.83538E-12
19, 900.00000, -1.28432E-11, -7.78298E-12, -19.4767, -9.73836, -1.08729E-11, -1.55318E-11
19, 1800.00000, -3.35716E-11, -4.81296E-12, -19.3561, -9.67807, -1.49135E-11, -8.07983E-12
19, 2700.00000, 3.06157E-12, 2.28164E-11, -19.2355, -9.61776, 1.61668E-11, -2.98319E-11
20, 0.00000, -2.0343E-11, -3.66997E-11, -19.1148, -9.55743, -6.83146E-12, -2.30054E-11
20, 900.00000, -3.53402E-11, 3.58252E-12, -18.9941, -9.49708, 1.7706E-11, 3.85624E-11
20, 1800.00000, -4.5205E-12, -8.16726E-12, -18.7817, -9.39089, 8.0971E-12, -1.49254E-11
20, 2700.00000, -9.91535E-12, 1.29549E-11, -18.5692, -9.28464, -6.82617E-12, -2.30335E-11
21, 0.00000, -1.79092E-11, -2.8552E-11, -18.3566, -9.17834, 1.89895E-11, 6.43098E-13
21, 900.00000, -2.6489E-11, 1.78251E-11, -18.1439, -9.072, -1.89972E-11, -6.47444E-13
21, 1800.00000, -2.51169E-12, -1.03762E-11, -17.8385, -8.91925, 0, 0
21, 2700.00000, 2.01127E-11, -2.17693E-11, -17.5329, -8.76646, -1.08837E-11, -1.56115E-11
22, 0.00000, 2.42306E-12, 8.30291E-12, -17.2272, -8.61362, -1.49579E-11, -8.14518E-12
22, 900.00000, -1.61453E-12, 1.267E-11, -16.9212, -8.46064, 4.07732E-12, -7.48211E-12
22, 1800.00000, 4.83648E-12, 1.66435E-11, -16.604, -8.30202, -1.08885E-11, -1.56498E-11
22, 2700.00000, -1.21443E-11, 1.30844E-11, -16.2866, -8.1433, 1.49772E-11, 8.17424E-12
23, 0.00000, 1.37078E-11, 2.89994E-11, -15.9689, -7.98448, 8.18404E-12, -1.49837E-11
23, 900.00000, 3.10131E-11, 4.10661E-11, -15.6511, -7.82558, 4.09693E-12, -7.49511E-12
23, 1800.00000, -3.76396E-12, 1.27981E-11, -15.4321, -7.71605, -1.49945E-11, -8.20045E-12
23, 2700.00000, 1.43176E-11, -1.31775E-11, -15.2129, -7.60648, 1.49989E-11, 8.20703E-12
24, 0.00000, 1.17782E-11, -2.57704E-11, -14.9937, -7.49686, -3.82199E-11, -1.42408E-12
