hour,t(sec),V1,VAngle1,V2,VAngle2,I1,IAngle1,I2,IAngle2
0, 900.00000, 2409.43, -2.00353, 2397.18, 118.961, 13.4785, 151.417, 1.49998E-11, -104.036
0, 1800.00000, 2410.14, -1.99152, 2397.7, 118.966, 13.386, 151.429, 3.63798E-12, 0
0, 2700.00000, 2410.85, -1.97946, 2398.23, 118.972, 13.2935, 151.441, 3.63798E-12, 180
1, 0.00000, 2411.56, -1.9674, 2398.75, 118.977, 13.2009, 151.453, 8.13477E-12, -116.565
1, 900.00000, 2397.42, -1.95476, 2399.28, 118.981, 13.1157, 151.466, 1.45519E-11, 180
1, 1800.00000, 2397.77, -1.94836, 2399.59, 118.985, 13.0817, 151.473, 0, 0
1, 2700.00000, 2398.13, -1.94191, 2399.91, 118.988, 13.0473, 151.479, 7.27596E-12, 0
2, 0.00000, 2398.48, -1.93546, 2400.22, 118.991, 13.0128, 151.486, 7.27596E-12, 180
2, 900.00000, 2398.84, -1.929, 2400.53, 118.995, 12.9783, 151.492, 1.09139E-11, 180
2, 1800.00000, 2398.98, -1.92636, 2400.67, 118.996, 12.9686, 151.495, 3.63798E-12, 180
2, 2700.00000, 2399.12, -1.92374, 2400.8, 118.998, 12.959, 151.497, 8.13477E-12, -63.4349
3, 0.00000, 2399.26, -1.92112, 2400.93, 118.999, 12.9493, 151.5, 1.02898E-11, -135
3, 900.00000, 2399.39, -1.9185, 2401.06, 119.001, 12.9397, 151.503, 0, 0
3, 1800.00000, 2398.94, -1.92542, 2400.81, 118.999, 13.0221, 151.496, 7.27596E-12, -90
3, 2700.00000, 2398.49, -1.93239, 2400.56, 118.997, 13.1048, 151.488, 7.27596E-12, -90
4, 0.00000, 2398.04, -1.93936, 2400.3, 118.995, 13.1875, 151.481, 7.27596E-12, 180
4, 900.00000, 2397.59, -1.94632, 2400.05, 118.993, 13.2701, 151.474, 0, 0
4, 1800.00000, 2396.31, -1.96656, 2399.28, 118.986, 13.4857, 151.454, 8.13477E-12, -116.565
4, 2700.00000, 2395.03, -1.98686, 2398.51, 118.979, 13.7015, 151.433, 7.27596E-12, 180
5, 0.00000, 2393.75, -2.00716, 2397.73, 118.973, 13.9174, 151.412, 7.27596E-12, 90
5, 900.00000, 2392.47, -2.02745, 2396.96, 118.966, 14.1333, 151.392, 3.63798E-12, 180
5, 1800.00000, 2404.8, -2.06712, 2395.51, 118.955, 14.5498, 151.351, 1.02898E-11, 45
5, 2700.00000, 2402.31, -2.10606, 2394.07, 118.943, 14.9737, 151.312, 1.49998E-11, -104.036
6, 0.00000, 2399.81, -2.14504, 2392.62, 118.931, 15.3983, 151.272, 1.02898E-11, 45
6, 900.00000, 2397.33, -2.18416, 2406.09, 118.918, 15.8228, 151.232, 7.27596E-12, 90
6, 1800.00000, 2396.07, -2.20334, 2405.4, 118.913, 16.0482, 151.213, 7.27596E-12, 0
6, 2700.00000, 2410.18, -2.20955, 2404.98, 118.914, 16.2643, 151.206, 1.02898E-11, -45
7, 0.00000, 2408.92, -2.22857, 2404.29, 118.909, 16.4891, 151.187, 8.13477E-12, 116.565
7, 900.00000, 2407.66, -2.24772, 2403.6, 118.904, 16.7148, 151.167, 1.02898E-11, -135
7, 1800.00000, 2410.13, -2.15389, 2404.94, 118.928, 16.7306, 151.261, 3.63798E-12, 180
7, 2700.00000, 2411.23, -2.11084, 2405.57, 118.944, 16.747, 151.304, 1.02898E-11, 45
8, 0.00000, 2397.42, -2.06892, 2406.18, 118.956, 16.7722, 151.346, 7.27596E-12, 90
8, 900.00000, 2398.44, -2.02801, 2406.77, 118.97, 16.7893, 151.387, 1.02898E-11, -135
8, 1800.00000, 2399.41, -1.99439, 2407.37, 118.981, 16.7733, 151.421, 8.13477E-12, -116.565
8, 2700.00000, 2400.37, -1.96083, 2407.97, 118.992, 16.7572, 151.454, 3.63798E-12, 180
9, 0.00000, 2401.33, -1.92729, 2408.57, 119.003, 16.7412, 151.488, 7.27596E-12, -90
9, 900.00000, 2402.2, -1.89576, 2409.1, 119.021, 16.7249, 151.519, 3.63798E-12, 180
9, 1800.00000, 2402.51, -1.88339, 2409.29, 119.024, 16.7343, 151.532, 7.27596E-12, -90
9, 2700.00000, 2402.82, -1.87099, 2409.48, 119.026, 16.7436, 151.544, 8.13477E-12, 63.4349
10, 0.00000, 2403.13, -1.8586, 2409.67, 119.029, 16.7529, 151.556, 1.81899E-11, -126.87
10, 900.00000, 2403.43, -1.84621, 2409.86, 119.032, 16.7623, 151.569, 3.63798E-12, 0
10, 1800.00000, 2403.77, -1.83777, 2410.11, 119.035, 16.7363, 151.577, 3.63798E-12, 0
10, 2700.00000, 2404.11, -1.82934, 2410.37, 119.039, 16.7104, 151.586, 7.27596E-12, 180
11, 0.00000, 2404.44, -1.82091, 2410.63, 119.043, 16.6845, 151.594, 7.27596E-12, -90
11, 900.00000, 2404.78, -1.81249, 2410.88, 119.047, 16.6586, 151.603, 3.63798E-12, 180
11, 1800.00000, 2405.02, -1.80751, 2411.09, 119.049, 16.6376, 151.608, 3.63798E-12, 0
11, 2700.00000, 2405.27, -1.80254, 2411.3, 119.051, 16.6166, 151.613, 7.27596E-12, -90
12, 0.00000, 2405.51, -1.79758, 2411.51, 119.053, 16.5956, 151.618, 1.49998E-11, 104.036
12, 900.00000, 2405.75, -1.79261, 2411.72, 119.056, 16.5746, 151.623, 1.09139E-11, 0
12, 1800.00000, 2405.66, -1.79918, 2411.73, 119.057, 16.567, 151.616, 8.13477E-12, 116.565
12, 2700.00000, 2405.56, -1.80579, 2411.73, 119.058, 16.5596, 151.61, 3.63798E-12, 180
13, 0.00000, 2405.46, -1.8124, 2411.74, 119.059, 16.5521, 151.603, 0, 0
13, 900.00000, 2405.37, -1.819, 2411.75, 119.059, 16.5447, 151.596, 3.63798E-12, 0
13, 1800.00000, 2405.04, -1.83189, 2411.6, 119.058, 16.544, 151.583, 0, 0
13, 2700.00000, 2404.72, -1.8448, 2411.45, 119.057, 16.5434, 151.571, 3.63798E-12, 0
14, 0.00000, 2404.39, -1.85772, 2411.3, 119.056, 16.5428, 151.558, 7.27596E-12, 180
14, 900.00000, 2404.07, -1.87064, 2411.16, 119.055, 16.5422, 151.545, 7.27596E-12, 180
14, 1800.00000, 2403.19, -1.90357, 2410.55, 119.042, 16.531, 151.512, 7.27596E-12, 180
14, 2700.00000, 2402.32, -1.93657, 2409.94, 119.029, 16.5201, 151.479, 0, 0
15, 0.00000, 2401.43, -1.9696, 2409.33, 119.017, 16.5091, 151.446, 1.45519E-11, -90
15, 900.00000, 2400.55, -2.00267, 2408.72, 119.004, 16.4981, 151.413, 1.02898E-11, -135
15, 1800.00000, 2398.49, -2.06044, 2407.31, 118.983, 16.6013, 151.355, 1.02898E-11, -135
15, 2700.00000, 2395.79, -2.14303, 2405.68, 118.968, 16.7046, 151.272, 8.13477E-12, 116.565
16, 0.00000, 2393.96, -2.191, 2404.33, 118.941, 16.8073, 151.224, 0, 0
16, 900.00000, 2405.93, -2.27788, 2402.32, 118.9, 16.9009, 151.137, 7.27596E-12, 0
16, 1800.00000, 2403.04, -2.32615, 2400.23, 118.88, 17.2646, 151.088, 1.02898E-11, -135
16, 2700.00000, 2400.15, -2.37448, 2398.13, 118.86, 17.6291, 151.039, 8.13477E-12, -63.4349
17, 0.00000, 2397.23, -2.43184, 2395.93, 118.841, 17.9941, 150.981, 7.27596E-12, -90
17, 900.00000, 2394.43, -2.47824, 2393.87, 118.813, 18.3583, 150.934, 1.49998E-11, -104.036
17, 1800.00000, 2409.2, -2.47452, 2408.55, 118.815, 18.4181, 150.938, 7.27596E-12, 180
17, 2700.00000, 2408.57, -2.48512, 2408.06, 118.81, 18.4881, 150.927, 8.13477E-12, -116.565
18, 0.00000, 2407.93, -2.49591, 2407.56, 118.805, 18.559, 150.916, 1.09139E-11, 180
18, 900.00000, 2407.3, -2.50671, 2407.07, 118.8, 18.6299, 150.905, 8.13477E-12, -63.4349
18, 1800.00000, 2407.89, -2.49787, 2407.39, 118.802, 18.5282, 150.914, 0, 0
18, 2700.00000, 2408.48, -2.48888, 2407.72, 118.805, 18.4258, 150.924, 1.02898E-11, 135
19, 0.00000, 2409.08, -2.47988, 2408.05, 118.808, 18.3235, 150.933, 7.27596E-12, 180
19, 900.00000, 2409.67, -2.47089, 2408.37, 118.81, 18.2211, 150.942, 8.13477E-12, -116.565
19, 1800.00000, 2410.54, -2.45744, 2408.89, 118.814, 18.0803, 150.956, 1.49998E-11, -104.036
19, 2700.00000, 2411.41, -2.44396, 2409.41, 118.819, 17.9394, 150.969, 7.27596E-12, 180
20, 0.00000, 2412.28, -2.43048, 2409.93, 118.823, 17.7984, 150.983, 8.13477E-12, -116.565
20, 900.00000, 2398.31, -2.41619, 2410.45, 118.827, 17.6671, 150.997, 3.63798E-12, 180
20, 1800.00000, 2399.95, -2.39315, 2411.29, 118.833, 17.4343, 151.021, 1.81899E-11, 53.1301
20, 2700.00000, 2401.47, -2.36889, 2412.24, 118.84, 17.2008, 151.045, 0, 0
21, 0.00000, 2402.95, -2.34501, 2398.14, 118.849, 16.9679, 151.07, 8.13477E-12, -116.565
21, 900.00000, 2404.44, -2.32141, 2399.08, 118.858, 16.7353, 151.094, 1.02898E-11, -45
21, 1800.00000, 2406.44, -2.28103, 2400.47, 118.876, 16.4163, 151.135, 3.63798E-12, 0
21, 2700.00000, 2408.53, -2.24762, 2401.8, 118.887, 16.0986, 151.168, 8.13477E-12, 63.4349
22, 0.00000, 2410.62, -2.21413, 2403.14, 118.899, 15.7806, 151.202, 8.13477E-12, -116.565
22, 900.00000, 2397.76, -2.18002, 2404.48, 118.91, 15.4717, 151.237, 3.63798E-12, 0
22, 1800.00000, 2399.85, -2.14593, 2405.86, 118.923, 15.1595, 151.272, 1.02898E-11, -135
22, 2700.00000, 2402.05, -2.10372, 2407.27, 118.932, 14.8464, 151.314, 8.13477E-12, -116.565
23, 0.00000, 2404.13, -2.06965, 2408.66, 118.944, 14.5341, 151.349, 7.27596E-12, 90
23, 900.00000, 2406.13, -2.03768, 2409.94, 118.964, 14.2215, 151.381, 3.63798E-12, 0
23, 1800.00000, 2392.31, -2.02665, 2395.8, 118.967, 14.0343, 151.393, 8.13477E-12, -116.565
23, 2700.00000, 2393.67, -2.00407, 2396.73, 118.975, 13.839, 151.416, 3.63798E-12, 0
24, 0.00000, 2395.03, -1.98131, 2397.65, 118.984, 13.6431, 151.439, 1.09139E-11, 180
