hour,t(sec),V1,VAngle1,V2,VAngle2,V3,VAngle3,I1,IAngle1,I2,IAngle2,I3,IAngle3
4776, 900.00000, 20.8996, -81.8565, 22.3567, 109.059, 2755.2, 116.951, 4205.2, 98.076, 4459.7, -70.8816, 317.807, -77.5476
4776, 1800.00000, 20.8974, -81.8541, 22.3604, 109.055, 2755.57, 116.956, 4204.46, 98.0788, 4460.61, -70.8854, 314.585, -77.3654
4776, 2700.00000, 20.8953, -81.8517, 22.3641, 109.052, 2755.94, 116.961, 4203.72, 98.0815, 4461.53, -70.8892, 311.362, -77.1795
4777, 0.00000, 20.8931, -81.8493, 22.3679, 109.048, 2756.31, 116.966, 4202.98, 98.0843, 4462.44, -70.8929, 308.141, -76.9901
4777, 900.00000, 20.891, -81.8469, 22.3716, 109.044, 2756.68, 116.972, 4202.24, 98.087, 4463.36, -70.8967, 304.923, -76.7971
4777, 1800.00000, 20.8894, -81.8452, 22.3742, 109.042, 2756.95, 116.975, 4201.71, 98.089, 4464.01, -70.8994, 302.631, -76.6566
4777, 2700.00000, 20.8878, -81.8435, 22.3768, 109.039, 2757.21, 116.979, 4201.18, 98.0909, 4464.66, -70.9021, 300.342, -76.5142
4778, 0.00000, 20.8863, -81.8418, 22.3794, 109.037, 2757.47, 116.983, 4200.66, 98.0929, 4465.31, -70.9048, 298.055, -76.3698
4778, 900.00000, 20.8847, -81.8401, 22.382, 109.034, 2757.74, 116.987, 4200.13, 98.0948, 4465.96, -70.9075, 295.769, -76.2233
4778, 1800.00000, 20.8834, -81.8387, 22.3842, 109.032, 2757.95, 116.99, 4199.71, 98.0964, 4466.48, -70.9096, 293.941, -76.1052
4778, 2700.00000, 20.8822, -81.8374, 22.3863, 109.03, 2758.16, 116.993, 4199.29, 98.0979, 4467.01, -70.9117, 292.115, -75.9858
4779, 0.00000, 20.8809, -81.836, 22.3885, 109.028, 2758.37, 116.996, 4198.86, 98.0995, 4467.53, -70.9138, 290.29, -75.8649
4779, 900.00000, 20.8797, -81.8347, 22.3906, 109.026, 2758.58, 116.999, 4198.44, 98.101, 4468.05, -70.9159, 288.467, -75.7427
4779, 1800.00000, 20.8794, -81.8344, 22.3912, 109.025, 2758.64, 116.999, 4198.33, 98.1014, 4468.19, -70.9165, 287.971, -75.7091
4779, 2700.00000, 20.879, -81.834, 22.3917, 109.025, 2758.69, 117, 4198.21, 98.1019, 4468.33, -70.9171, 287.477, -75.6755
4780, 0.00000, 20.8787, -81.8336, 22.3923, 109.024, 2758.75, 117.001, 4198.1, 98.1023, 4468.47, -70.9177, 286.984, -75.6418
4780, 900.00000, 20.8784, -81.8333, 22.3929, 109.024, 2758.81, 117.002, 4197.98, 98.1027, 4468.61, -70.9183, 286.491, -75.608
4780, 1800.00000, 20.8784, -81.8333, 22.3929, 109.024, 2758.81, 117.002, 4197.98, 98.1027, 4468.62, -70.9183, 286.462, -75.6062
4780, 2700.00000, 20.8784, -81.8333, 22.393, 109.024, 2758.81, 117.002, 4197.97, 98.1028, 4468.63, -70.9183, 286.434, -75.6045
4781, 0.00000, 20.8784, -81.8333, 22.393, 109.024, 2758.81, 117.002, 4197.96, 98.1028, 4468.64, -70.9183, 286.406, -75.6027
4781, 900.00000, 20.8784, -81.8333, 22.393, 109.024, 2758.82, 117.002, 4197.96, 98.1028, 4468.65, -70.9183, 286.378, -75.601
4781, 1800.00000, 20.878, -81.833, 22.3937, 109.023, 2758.88, 117.003, 4197.84, 98.1032, 4468.8, -70.9189, 285.853, -75.5653
4781, 2700.00000, 20.8777, -81.8326, 22.3943, 109.022, 2758.94, 117.004, 4197.71, 98.1037, 4468.95, -70.9195, 285.328, -75.5294
4782, 0.00000, 20.8773, -81.8322, 22.395, 109.022, 2759, 117.005, 4197.59, 98.1041, 4469.1, -70.9201, 284.802, -75.4935
4782, 900.00000, 20.877, -81.8319, 22.3956, 109.021, 2759.06, 117.005, 4197.47, 98.1046, 4469.25, -70.9207, 284.277, -75.4574
4782, 1800.00000, 20.8785, -81.8335, 22.393, 109.024, 2758.8, 117.002, 4197.99, 98.1027, 4468.61, -70.9181, 286.51, -75.6114
4782, 2700.00000, 20.8773, -81.8371, 22.3942, 109.028, 2758.69, 117.004, 4197.92, 98.0985, 4468.71, -70.9134, 286.102, -75.8656
4783, 0.00000, 20.8735, -81.8381, 22.3994, 109.032, 2758.75, 117.013, 4197.26, 98.0929, 4469.54, -70.9074, 283.087, -76.173
4783, 900.00000, 20.8697, -81.8416, 22.4044, 109.037, 2758.81, 117.021, 4196.6, 98.0869, 4470.38, -70.9009, 280.045, -76.5144
4783, 1800.00000, 20.8685, -81.8451, 22.4054, 109.042, 2758.6, 117.024, 4196.64, 98.081, 4470.36, -70.8941, 280.075, -76.8898
4783, 2700.00000, 20.8673, -81.8485, 22.4064, 109.048, 2758.4, 117.026, 4196.67, 98.0751, 4470.34, -70.8873, 280.121, -77.2652
4784, 0.00000, 20.8661, -81.8519, 22.4073, 109.053, 2758.19, 117.029, 4196.7, 98.0692, 4470.32, -70.8805, 280.18, -77.6405
4784, 900.00000, 20.8649, -81.8554, 22.4083, 109.059, 2757.98, 117.031, 4196.74, 98.0633, 4470.3, -70.8737, 280.251, -78.0156
4784, 1800.00000, 20.8656, -81.8587, 22.4066, 109.064, 2757.65, 117.029, 4197.2, 98.0583, 4469.74, -70.8675, 282.222, -78.3478
4784, 2700.00000, 20.8662, -81.8621, 22.4049, 109.069, 2757.31, 117.028, 4197.66, 98.0532, 4469.19, -70.8613, 284.204, -78.6755
4785, 0.00000, 20.8669, -81.8655, 22.4031, 109.075, 2756.97, 117.026, 4198.11, 98.0482, 4468.63, -70.8551, 286.195, -78.9988
4785, 900.00000, 20.8675, -81.8689, 22.4014, 109.08, 2756.63, 117.024, 4198.57, 98.0431, 4468.08, -70.849, 288.194, -79.3176
4785, 1800.00000, 20.8692, -81.8718, 22.3982, 109.085, 2756.23, 117.02, 4199.27, 98.0391, 4467.23, -70.8437, 291.239, -79.575
4785, 2700.00000, 20.871, -81.8747, 22.395, 109.09, 2755.84, 117.016, 4199.96, 98.035, 4466.38, -70.8384, 294.289, -79.8273
4786, 0.00000, 20.8727, -81.8776, 22.3918, 109.094, 2755.44, 117.012, 4200.65, 98.0309, 4465.53, -70.8331, 297.343, -80.0747
4786, 900.00000, 20.8749, -81.8771, 22.3878, 109.095, 2755.07, 117.004, 4201.51, 98.0298, 4464.45, -70.8312, 301.161, -80.1281
4786, 1800.00000, 20.8768, -81.8799, 22.3843, 109.1, 2754.68, 117, 4202.23, 98.026, 4463.56, -70.8263, 304.349, -80.3492
4786, 2700.00000, 20.8787, -81.8828, 22.3808, 109.104, 2754.28, 116.995, 4202.95, 98.0222, 4462.67, -70.8213, 307.549, -80.5666
4787, 0.00000, 20.8806, -81.8856, 22.3774, 109.109, 2753.88, 116.99, 4203.67, 98.0184, 4461.79, -70.8163, 310.753, -80.7797
4787, 900.00000, 20.8825, -81.8885, 22.3739, 109.114, 2753.48, 116.986, 4204.39, 98.0146, 4460.9, -70.8113, 313.961, -80.9888
4787, 1800.00000, 20.8849, -81.8911, 22.3697, 109.118, 2753.07, 116.98, 4205.22, 98.0114, 4459.88, -70.807, 317.614, -81.1577
4787, 2700.00000, 20.8873, -81.8936, 22.3655, 109.122, 2752.65, 116.974, 4206.04, 98.0082, 4458.87, -70.8026, 321.27, -81.3231
4788, 0.00000, 20.8897, -81.8962, 22.3613, 109.126, 2752.24, 116.969, 4206.86, 98.005, 4457.85, -70.7983, 324.928, -81.4852
4788, 900.00000, 20.8921, -81.8988, 22.3571, 109.13, 2751.82, 116.963, 4207.69, 98.0018, 4456.84, -70.7939, 328.587, -81.6442
4788, 1800.00000, 20.8951, -81.9017, 22.352, 109.135, 2751.34, 116.956, 4208.68, 97.9986, 4455.61, -70.7893, 332.999, -81.7983
4788, 2700.00000, 20.8982, -81.9045, 22.3468, 109.139, 2750.86, 116.948, 4209.67, 97.9953, 4454.39, -70.7847, 337.413, -81.949
4789, 0.00000, 20.9012, -81.9074, 22.3417, 109.144, 2750.37, 116.941, 4210.66, 97.992, 4453.16, -70.7801, 341.828, -82.0965
4789, 900.00000, 20.9047, -81.907, 22.3357, 109.145, 2749.9, 116.93, 4211.86, 97.9915, 4451.66, -70.7785, 347.14, -82.082
4789, 1800.00000, 20.907, -81.9093, 22.3318, 109.148, 2749.53, 116.925, 4212.62, 97.9889, 4450.72, -70.7749, 350.52, -82.1966
4789, 2700.00000, 20.9092, -81.9116, 22.3279, 109.152, 2749.15, 116.92, 4213.38, 97.9863, 4449.78, -70.7712, 353.911, -82.3098
4790, 0.00000, 20.9115, -81.9139, 22.324, 109.156, 2748.78, 116.914, 4214.14, 97.9836, 4448.84, -70.7675, 357.304, -82.4212
4790, 900.00000, 20.9138, -81.9162, 22.3202, 109.159, 2748.41, 116.909, 4214.9, 97.981, 4447.9, -70.7638, 360.698, -82.5308
4790, 1800.00000, 20.9161, -81.9179, 22.3165, 109.162, 2748.08, 116.903, 4215.61, 97.9793, 4447.02, -70.7612, 363.851, -82.5918
4790, 2700.00000, 20.9184, -81.9196, 22.3129, 109.165, 2747.76, 116.898, 4216.32, 97.9777, 4446.15, -70.7586, 367.004, -82.652
4791, 0.00000, 20.9207, -81.9213, 22.3092, 109.167, 2747.44, 116.892, 4217.03, 97.976, 4445.27, -70.7561, 370.157, -82.7115
4791, 900.00000, 20.9229, -81.9231, 22.3056, 109.17, 2747.12, 116.887, 4217.74, 97.9744, 4444.39, -70.7535, 373.309, -82.7703
4791, 1800.00000, 20.9249, -81.9241, 22.3026, 109.171, 2746.88, 116.882, 4218.3, 97.9737, 4443.68, -70.7522, 375.825, -82.7832
4791, 2700.00000, 20.9269, -81.9252, 22.2996, 109.173, 2746.65, 116.877, 4218.87, 97.9731, 4442.98, -70.7509, 378.338, -82.7961
4792, 0.00000, 20.9288, -81.9263, 22.2966, 109.174, 2746.41, 116.873, 4219.44, 97.9725, 4442.27, -70.7497, 380.851, -82.809
4792, 900.00000, 20.9308, -81.9274, 22.2936, 109.176, 2746.18, 116.868, 4220, 97.9718, 4441.56, -70.7484, 383.364, -82.8219
4792, 1800.00000, 20.9333, -81.9278, 22.2898, 109.176, 2745.96, 116.862, 4220.65, 97.9727, 4440.76, -70.7488, 386.193, -82.765
4792, 2700.00000, 20.9358, -81.9282, 22.2861, 109.176, 2745.74, 116.856, 4221.29, 97.9735, 4439.95, -70.7491, 389.023, -82.7092
4793, 0.00000, 20.9384, -81.9286, 22.2824, 109.177, 2745.53, 116.85, 4221.94, 97.9743, 4439.15, -70.7495, 391.852, -82.6545
4793, 900.00000, 20.9415, -81.9259, 22.2776, 109.173, 2745.31, 116.84, 4222.81, 97.9777, 4438.04, -70.7528, 395.683, -82.4668
4793, 1800.00000, 20.9439, -81.9252, 22.2743, 109.171, 2745.22, 116.834, 4223.29, 97.9806, 4437.43, -70.7557, 397.784, -82.3259
4793, 2700.00000, 20.9462, -81.9246, 22.2709, 109.17, 2745.13, 116.829, 4223.78, 97.9834, 4436.81, -70.7586, 399.894, -82.1867
4794, 0.00000, 20.9486, -81.924, 22.2676, 109.168, 2745.04, 116.823, 4224.27, 97.9863, 4436.2, -70.7615, 402.007, -82.0492
4794, 900.00000, 20.951, -81.9235, 22.2643, 109.166, 2744.96, 116.818, 4224.76, 97.9891, 4435.58, -70.7644, 404.123, -81.9134
4794, 1800.00000, 20.9548, -81.9208, 22.259, 109.162, 2744.89, 116.809, 4225.46, 97.9951, 4434.68, -70.7709, 407.19, -81.6349
4794, 2700.00000, 20.9573, -81.9205, 22.2555, 109.159, 2744.89, 116.803, 4225.89, 97.9998, 4434.15, -70.7761, 408.983, -81.4233
4795, 0.00000, 20.9602, -81.9177, 22.2515, 109.155, 2744.89, 116.796, 4226.37, 98.0053, 4433.53, -70.7822, 411.087, -81.1754
4795, 900.00000, 20.9588, -81.9157, 22.254, 109.152, 2745.16, 116.8, 4225.84, 98.0075, 4434.19, -70.7851, 408.73, -81.0884
4795, 1800.00000, 20.9585, -81.9153, 22.2544, 109.151, 2745.21, 116.8, 4225.75, 98.0078, 4434.29, -70.7856, 408.349, -81.0737
4795, 2700.00000, 20.9583, -81.915, 22.2547, 109.151, 2745.25, 116.801, 4225.67, 98.0081, 4434.4, -70.7861, 407.974, -81.0592
4796, 0.00000, 20.958, -81.9146, 22.2551, 109.15, 2745.29, 116.801, 4225.59, 98.0085, 4434.5, -70.7867, 407.599, -81.0447
4796, 900.00000, 20.9578, -81.9143, 22.2554, 109.15, 2745.34, 116.802, 4225.5, 98.0088, 4434.61, -70.7871, 407.224, -81.0302
4796, 1800.00000, 20.9556, -81.9115, 22.2591, 109.146, 2745.72, 116.807, 4224.74, 98.0118, 4435.55, -70.7913, 403.842, -80.9035
4796, 2700.00000, 20.9535, -81.9088, 22.2628, 109.142, 2746.11, 116.813, 4223.97, 98.0149, 4436.49, -70.7955, 400.451, -80.7746
4797, 0.00000, 20.9513, -81.906, 22.2666, 109.138, 2746.5, 116.818, 4223.21, 98.0179, 4437.43, -70.7997, 397.061, -80.6438
4797, 900.00000, 20.9492, -81.9032, 22.2703, 109.134, 2746.89, 116.823, 4222.44, 98.0209, 4438.38, -70.8039, 393.673, -80.5111
4797, 1800.00000, 20.9447, -81.8976, 22.2781, 109.125, 2747.68, 116.834, 4220.86, 98.0271, 4440.32, -70.8124, 386.708, -80.2324
4797, 2700.00000, 20.9402, -81.8921, 22.2859, 109.117, 2748.48, 116.845, 4219.28, 98.0332, 4442.27, -70.8209, 379.737, -79.9444
4798, 0.00000, 20.9357, -81.8866, 22.2937, 109.109, 2749.28, 116.856, 4217.7, 98.0394, 4444.22, -70.8294, 372.773, -79.647
4798, 900.00000, 20.9312, -81.8811, 22.3016, 109.1, 2750.07, 116.868, 4216.12, 98.0455, 4446.17, -70.8378, 365.815, -79.3396
4798, 1800.00000, 20.9268, -81.8758, 22.3092, 109.092, 2750.84, 116.878, 4214.59, 98.0514, 4448.06, -70.8459, 359.075, -79.0312
4798, 2700.00000, 20.9223, -81.8705, 22.3168, 109.085, 2751.61, 116.889, 4213.05, 98.0573, 4449.95, -70.854, 352.343, -78.7123
4799, 0.00000, 20.9174, -81.8687, 22.3253, 109.081, 2752.36, 116.903, 4211.34, 98.0602, 4452.08, -70.8587, 344.791, -78.5421
4799, 900.00000, 20.913, -81.8635, 22.3329, 109.073, 2753.12, 116.914, 4209.82, 98.066, 4453.96, -70.8667, 338.11, -78.2053
4799, 1800.00000, 20.9098, -81.8598, 22.3384, 109.067, 2753.68, 116.922, 4208.7, 98.0702, 4455.34, -70.8725, 333.235, -77.9514
4799, 2700.00000, 20.9065, -81.856, 22.344, 109.062, 2754.24, 116.93, 4207.59, 98.0744, 4456.72, -70.8783, 328.368, -77.6907
4800, 0.00000, 20.9032, -81.8523, 22.3496, 109.056, 2754.8, 116.938, 4206.47, 98.0786, 4458.09, -70.884, 323.507, -77.423
