hour,t(sec),V1,VAngle1,V2,VAngle2,V3,VAngle3,I1,IAngle1,I2,IAngle2,I3,IAngle3
0, 900.00000, 2489.58, -2.8227, 2498.13, -121.647, 2488.14, 118.113, 174.35, 3.27879, 134.439, -107.961, 147.365, 130.387
0, 1800.00000, 2490.61, -2.80632, 2498.57, -121.639, 2488.94, 118.123, 173.153, 3.5837, 133.658, -107.611, 146.406, 130.734
0, 2700.00000, 2491.65, -2.78985, 2499, -121.631, 2489.75, 118.134, 171.956, 3.89364, 132.882, -107.258, 145.45, 131.087
1, 0.00000, 2492.68, -2.77338, 2499.43, -121.622, 2490.56, 118.144, 170.764, 4.20765, 132.11, -106.9, 144.498, 131.444
1, 900.00000, 2493.74, -2.7565, 2499.84, -121.614, 2491.37, 118.155, 169.57, 4.52772, 131.343, -106.539, 143.549, 131.807
1, 1800.00000, 2494.25, -2.74779, 2500.05, -121.611, 2491.87, 118.162, 168.969, 4.69891, 130.956, -106.359, 142.981, 132.021
1, 2700.00000, 2494.76, -2.739, 2500.25, -121.608, 2492.37, 118.168, 168.366, 4.87204, 130.57, -106.179, 142.413, 132.238
2, 0.00000, 2495.27, -2.73022, 2500.45, -121.605, 2492.87, 118.175, 167.765, 5.04635, 130.185, -105.998, 141.847, 132.455
2, 900.00000, 2495.78, -2.72144, 2500.65, -121.602, 2493.36, 118.182, 167.165, 5.22183, 129.802, -105.815, 141.283, 132.675
2, 1800.00000, 2495.97, -2.71803, 2500.73, -121.601, 2493.56, 118.185, 166.942, 5.28801, 129.649, -105.743, 141.05, 132.766
2, 2700.00000, 2496.17, -2.71466, 2500.81, -121.599, 2493.76, 118.188, 166.721, 5.35402, 129.496, -105.671, 140.818, 132.857
3, 0.00000, 2496.37, -2.71128, 2500.9, -121.598, 2493.96, 118.19, 166.499, 5.42019, 129.343, -105.599, 140.587, 132.949
3, 900.00000, 2496.56, -2.70791, 2500.98, -121.597, 2494.15, 118.193, 166.278, 5.48653, 129.191, -105.526, 140.356, 133.04
3, 1800.00000, 2495.89, -2.71776, 2500.69, -121.603, 2493.77, 118.189, 167.034, 5.28461, 129.658, -105.769, 140.795, 132.851
3, 2700.00000, 2495.21, -2.72768, 2500.41, -121.609, 2493.38, 118.184, 167.796, 5.08344, 130.127, -106.01, 141.236, 132.662
4, 0.00000, 2494.54, -2.73761, 2500.12, -121.616, 2492.99, 118.18, 168.56, 4.88399, 130.598, -106.249, 141.679, 132.475
4, 900.00000, 2493.86, -2.74753, 2499.83, -121.622, 2492.6, 118.175, 169.325, 4.68623, 131.072, -106.487, 142.124, 132.288
4, 1800.00000, 2491.96, -2.77586, 2499.02, -121.639, 2491.42, 118.161, 171.48, 4.13373, 132.436, -107.149, 143.497, 131.731
4, 2700.00000, 2490.06, -2.8043, 2498.22, -121.657, 2490.24, 118.146, 173.654, 3.59283, 133.818, -107.799, 144.885, 131.183
5, 0.00000, 2488.15, -2.83274, 2497.41, -121.674, 2489.06, 118.132, 175.842, 3.0645, 135.215, -108.435, 146.286, 130.645
5, 900.00000, 2486.24, -2.86118, 2496.6, -121.691, 2487.88, 118.117, 178.043, 2.54833, 136.627, -109.059, 147.698, 130.118
5, 1800.00000, 2482.52, -2.91576, 2495, -121.726, 2485.72, 118.092, 182.291, 1.60308, 139.413, -110.239, 150.353, 129.153
5, 2700.00000, 2478.81, -2.96978, 2493.38, -121.761, 2483.57, 118.066, 186.569, 0.70139, 142.251, -111.374, 153.042, 128.222
6, 0.00000, 2475.11, -3.02386, 2491.77, -121.797, 2481.42, 118.04, 190.889, -0.163164, 145.14, -112.466, 155.768, 127.321
6, 900.00000, 2471.41, -3.07806, 2490.15, -121.832, 2479.25, 118.013, 195.248, -0.99237, 148.075, -113.517, 158.532, 126.45
6, 1800.00000, 2469.53, -3.10493, 2489.33, -121.85, 2478.23, 118.001, 197.458, -1.39354, 149.565, -114.033, 159.858, 126.041
6, 2700.00000, 2483.81, -3.11506, 2504.18, -121.859, 2493.12, 118, 199.62, -1.55296, 151.1, -114.251, 161.229, 125.914
7, 0.00000, 2481.94, -3.14174, 2503.36, -121.877, 2492.1, 117.987, 201.839, -1.93976, 152.605, -114.75, 162.567, 125.515
7, 900.00000, 2480.06, -3.16862, 2502.54, -121.895, 2491.07, 117.975, 204.079, -2.32101, 154.121, -115.24, 163.915, 125.123
7, 1800.00000, 2485, -2.97165, 2500.87, -121.845, 2493.5, 117.986, 191.863, -1.97978, 151.089, -115.093, 160.897, 125.313
7, 2700.00000, 2487.1, -2.88657, 2500.24, -121.821, 2494.56, 117.994, 186.873, -1.84662, 149.859, -115.045, 159.675, 125.383
8, 0.00000, 2489.15, -2.80283, 2499.54, -121.799, 2495.59, 118.001, 181.875, -1.71121, 148.636, -115.001, 158.444, 125.454
8, 900.00000, 2491.16, -2.72013, 2498.88, -121.777, 2496.61, 118.008, 176.907, -1.57942, 147.404, -114.955, 157.225, 125.523
8, 1800.00000, 2492.97, -2.65411, 2498.53, -121.758, 2497.63, 118.016, 172.84, -1.39221, 146.21, -114.829, 155.979, 125.675
8, 2700.00000, 2494.76, -2.58822, 2498.18, -121.74, 2498.65, 118.025, 168.782, -1.2005, 145.016, -114.701, 154.734, 125.829
9, 0.00000, 2496.56, -2.52244, 2497.83, -121.721, 2499.67, 118.033, 164.731, -1.00383, 143.822, -114.571, 153.492, 125.986
9, 900.00000, 2498.1, -2.46245, 2497.84, -121.704, 2485.41, 118.061, 160.719, -0.806797, 142.629, -114.445, 152.11, 125.907
9, 1800.00000, 2498.79, -2.4331, 2497.55, -121.699, 2485.85, 118.063, 158.956, -0.73505, 142.263, -114.433, 151.662, 125.951
9, 2700.00000, 2499.47, -2.40373, 2497.26, -121.693, 2486.29, 118.066, 157.194, -0.66218, 141.898, -114.421, 151.211, 125.995
10, 0.00000, 2500.15, -2.37438, 2496.98, -121.687, 2486.74, 118.068, 155.433, -0.58852, 141.533, -114.41, 150.76, 126.04
10, 900.00000, 2500.83, -2.34504, 2496.69, -121.682, 2487.19, 118.071, 153.674, -0.514043, 141.168, -114.398, 150.309, 126.085
10, 1800.00000, 2501.34, -2.33185, 2496.76, -121.677, 2487.58, 118.076, 152.838, -0.395215, 140.811, -114.301, 149.867, 126.2
10, 2700.00000, 2501.86, -2.31868, 2496.84, -121.673, 2487.97, 118.08, 152.004, -0.275339, 140.453, -114.204, 149.427, 126.316
11, 0.00000, 2502.37, -2.30551, 2496.91, -121.669, 2488.36, 118.085, 151.17, -0.154317, 140.095, -114.106, 148.987, 126.432
11, 900.00000, 2502.88, -2.29234, 2496.98, -121.664, 2488.75, 118.09, 150.337, -0.0321302, 139.738, -114.007, 148.548, 126.548
11, 1800.00000, 2503.25, -2.28457, 2497.08, -121.662, 2489.09, 118.094, 149.787, 0.0818883, 139.439, -113.915, 148.129, 126.668
11, 2700.00000, 2503.62, -2.2768, 2497.17, -121.66, 2489.44, 118.098, 149.237, 0.19654, 139.141, -113.823, 147.711, 126.789
12, 0.00000, 2503.99, -2.26904, 2497.27, -121.658, 2489.78, 118.103, 148.688, 0.311967, 138.844, -113.73, 147.294, 126.91
12, 900.00000, 2504.35, -2.26128, 2497.37, -121.656, 2490.13, 118.107, 148.14, 0.42818, 138.546, -113.637, 146.877, 127.032
12, 1800.00000, 2504.08, -2.27677, 2497.74, -121.656, 2490.11, 118.113, 149.045, 0.438851, 138.408, -113.584, 146.652, 127.101
12, 2700.00000, 2503.81, -2.29231, 2498.11, -121.656, 2490.09, 118.12, 149.952, 0.448601, 138.269, -113.53, 146.428, 127.169
13, 0.00000, 2503.54, -2.30786, 2498.49, -121.656, 2490.07, 118.126, 150.859, 0.457967, 138.131, -113.476, 146.204, 127.238
13, 900.00000, 2503.27, -2.32341, 2498.86, -121.656, 2490.05, 118.132, 151.767, 0.466956, 137.992, -113.421, 145.98, 127.306
13, 1800.00000, 2502.55, -2.35306, 2499.19, -121.662, 2489.73, 118.134, 153.621, 0.396707, 138.341, -113.441, 146.292, 127.286
13, 2700.00000, 2501.84, -2.38275, 2499.51, -121.668, 2489.4, 118.135, 155.477, 0.326729, 138.689, -113.46, 146.604, 127.265
14, 0.00000, 2501.12, -2.41246, 2499.83, -121.674, 2489.08, 118.136, 157.334, 0.25742, 139.038, -113.479, 146.917, 127.245
14, 900.00000, 2500.4, -2.44219, 2500.16, -121.679, 2488.76, 118.138, 159.193, 0.18876, 139.386, -113.498, 147.23, 127.224
14, 1800.00000, 2498.78, -2.50598, 2500.55, -121.696, 2487.73, 118.127, 162.931, -0.00951135, 140.388, -113.587, 148.392, 127.069
14, 2700.00000, 2497.15, -2.56992, 2500.96, -121.713, 2486.7, 118.117, 166.678, -0.203606, 141.389, -113.674, 149.559, 126.915
15, 0.00000, 2495.52, -2.63396, 2501.36, -121.73, 2485.67, 118.107, 170.432, -0.39294, 142.39, -113.76, 150.727, 126.764
15, 900.00000, 2493.88, -2.69809, 2501.77, -121.747, 2484.64, 118.096, 174.192, -0.577819, 143.391, -113.846, 151.897, 126.614
15, 1800.00000, 2490.32, -2.80606, 2501.71, -121.782, 2482.29, 118.069, 181.102, -1.14712, 146.1, -114.344, 154.979, 126.027
15, 2700.00000, 2485.24, -2.97553, 2502.84, -121.818, 2479.37, 118.061, 192, -1.81216, 148.82, -114.804, 158.061, 125.466
16, 0.00000, 2482.26, -3.05748, 2502.13, -121.857, 2477.24, 118.021, 196.985, -2.25732, 151.547, -115.286, 161.181, 124.914
16, 900.00000, 2477.44, -3.21026, 2501.79, -121.918, 2474.18, 117.972, 206.85, -2.80417, 156.178, -115.857, 166.221, 124.267
16, 1800.00000, 2473.24, -3.27518, 2499.98, -121.952, 2471.05, 117.931, 211.953, -3.67002, 159.78, -116.89, 170.441, 123.2
16, 2700.00000, 2469.03, -3.34021, 2498.18, -121.986, 2467.92, 117.889, 217.102, -4.49928, 163.428, -117.878, 174.713, 122.182
17, 0.00000, 2479.48, -3.4288, 2496.75, -122.015, 2464.47, 117.852, 222.214, -5.14442, 167.054, -118.817, 179.039, 121.216
17, 900.00000, 2475.49, -3.48846, 2494.59, -122.047, 2476.39, 117.791, 227.373, -5.90392, 170.789, -119.72, 183.396, 120.485
17, 1800.00000, 2490.85, -3.48399, 2509.89, -122.043, 2491.54, 117.792, 228.394, -5.86073, 171.567, -119.652, 184.383, 120.52
17, 2700.00000, 2489.94, -3.49826, 2509.51, -122.05, 2490.79, 117.782, 229.528, -6.02631, 172.386, -119.841, 185.41, 120.311
18, 0.00000, 2489.02, -3.51285, 2509.13, -122.057, 2490.03, 117.772, 230.683, -6.19293, 173.208, -120.03, 186.448, 120.103
18, 900.00000, 2488.09, -3.52744, 2508.75, -122.064, 2489.27, 117.762, 231.84, -6.35808, 174.032, -120.217, 187.489, 119.897
18, 1800.00000, 2488.97, -3.51518, 2509.14, -122.055, 2489.75, 117.768, 230.784, -6.22069, 173.272, -120.034, 186.811, 120.041
18, 2700.00000, 2489.86, -3.50267, 2509.53, -122.047, 2490.23, 117.773, 229.713, -6.08004, 172.513, -119.849, 186.128, 120.187
19, 0.00000, 2490.75, -3.49016, 2509.92, -122.038, 2490.71, 117.779, 228.643, -5.9382, 171.755, -119.663, 185.446, 120.335
19, 900.00000, 2491.65, -3.47765, 2510.31, -122.03, 2491.19, 117.785, 227.575, -5.79517, 170.999, -119.475, 184.765, 120.483
19, 1800.00000, 2492.95, -3.459, 2510.87, -122.018, 2491.97, 117.794, 226.005, -5.57847, 169.893, -119.2, 183.69, 120.716
19, 2700.00000, 2494.25, -3.4403, 2511.43, -122.006, 2492.74, 117.803, 224.435, -5.35856, 168.789, -118.921, 182.616, 120.952
20, 0.00000, 2495.55, -3.42159, 2511.98, -121.994, 2493.51, 117.813, 222.868, -5.13588, 167.69, -118.638, 181.545, 121.191
20, 900.00000, 2496.88, -3.40226, 2512.52, -121.982, 2494.29, 117.822, 221.291, -4.90791, 166.593, -118.352, 180.473, 121.432
20, 1800.00000, 2499.47, -3.37102, 2497.98, -121.943, 2495.44, 117.833, 218.58, -4.51397, 164.651, -118.08, 178.581, 121.866
20, 2700.00000, 2501.74, -3.3376, 2498.9, -121.923, 2496.87, 117.85, 215.878, -4.10044, 162.766, -117.571, 176.654, 122.316
21, 0.00000, 2503.97, -3.30468, 2499.84, -121.904, 2498.31, 117.868, 213.19, -3.67878, 160.889, -117.05, 174.737, 122.777
21, 900.00000, 2506.2, -3.27208, 2500.78, -121.884, 2499.72, 117.885, 210.526, -3.24942, 159.026, -116.517, 172.84, 123.244
21, 1800.00000, 2494.18, -3.2089, 2502.1, -121.865, 2486.82, 117.927, 206.861, -2.79518, 156.487, -115.765, 170.085, 123.71
21, 2700.00000, 2497.28, -3.16309, 2503.42, -121.838, 2488.81, 117.951, 203.152, -2.1561, 153.916, -114.974, 167.399, 124.413
22, 0.00000, 2500.37, -3.11718, 2504.74, -121.81, 2490.82, 117.977, 199.461, -1.49447, 151.375, -114.158, 164.732, 125.138
22, 900.00000, 2503.49, -3.07085, 2506.04, -121.783, 2492.82, 118.001, 195.791, -0.808955, 148.864, -113.317, 162.09, 125.885
22, 1800.00000, 2506.6, -3.02437, 2507.38, -121.756, 2494.88, 118.027, 192.122, -0.0920397, 146.349, -112.438, 159.393, 126.679
22, 2700.00000, 2494.99, -2.95699, 2492.74, -121.717, 2497.05, 118.044, 188.469, 0.457195, 143.8, -111.806, 156.758, 127.485
23, 0.00000, 2498.06, -2.91065, 2494.05, -121.69, 2499.12, 118.07, 184.85, 1.22193, 141.341, -110.872, 154.119, 128.332
23, 900.00000, 2500.92, -2.87032, 2495.71, -121.665, 2485.75, 118.114, 181.292, 2.00927, 138.916, -109.91, 151.407, 128.962
23, 1800.00000, 2486.88, -2.85486, 2481.11, -121.655, 2471.41, 118.123, 178.981, 2.28732, 137.246, -109.568, 149.592, 129.271
23, 2700.00000, 2488.88, -2.82453, 2481.98, -121.637, 2472.77, 118.14, 176.684, 2.82815, 135.682, -108.907, 147.869, 129.878
24, 0.00000, 2490.89, -2.79394, 2482.84, -121.62, 2474.13, 118.158, 174.386, 3.38571, 134.135, -108.23, 146.155, 130.501
