hour,t(sec),V1,VAngle1,V2,VAngle2,V3,VAngle3,I1,IAngle1,I2,IAngle2,I3,IAngle3
4776, 900.00000, 11.1732, -66.7112, 2994.73, -138.288, 2954.22, 135.206, 2234.83, 113.293, 104.144, 131.549, 93.6573, 29.5412
4776, 1800.00000, 11.175, -66.7057, 2996.16, -138.277, 2955.44, 135.229, 2235.18, 113.299, 104.193, 131.56, 93.756, 29.7507
4776, 2700.00000, 11.1768, -66.7002, 2997.59, -138.266, 2956.66, 135.252, 2235.53, 113.304, 104.243, 131.57, 93.8557, 29.9601
4777, 0.00000, 11.1785, -66.6948, 2999.01, -138.255, 2957.88, 135.274, 2235.89, 113.31, 104.293, 131.581, 93.9564, 30.1692
4777, 900.00000, 11.1803, -66.6893, 3000.44, -138.245, 2959.1, 135.297, 2236.24, 113.315, 104.343, 131.592, 94.0582, 30.3781
4777, 1800.00000, 11.1817, -66.6853, 3001.54, -138.236, 2959.96, 135.314, 2236.53, 113.319, 104.381, 131.6, 94.1349, 30.5389
4777, 2700.00000, 11.1831, -66.6813, 3002.64, -138.227, 2960.81, 135.33, 2236.81, 113.323, 104.419, 131.609, 94.2122, 30.6996
4778, 0.00000, 11.1846, -66.6773, 3003.74, -138.218, 2961.67, 135.347, 2237.09, 113.327, 104.458, 131.618, 94.2901, 30.8601
4778, 900.00000, 11.186, -66.6733, 3004.84, -138.209, 2962.52, 135.363, 2237.38, 113.331, 104.496, 131.627, 94.3687, 31.0204
4778, 1800.00000, 11.187, -66.6703, 3005.66, -138.203, 2963.21, 135.376, 2237.58, 113.334, 104.525, 131.633, 94.4293, 31.1405
4778, 2700.00000, 11.188, -66.6672, 3006.49, -138.197, 2963.9, 135.389, 2237.79, 113.337, 104.553, 131.64, 94.4904, 31.2605
4779, 0.00000, 11.189, -66.6642, 3007.31, -138.19, 2964.59, 135.402, 2237.99, 113.34, 104.582, 131.646, 94.5518, 31.3805
4779, 900.00000, 11.1901, -66.6611, 3008.14, -138.184, 2965.28, 135.415, 2238.2, 113.343, 104.611, 131.652, 94.6135, 31.5003
4779, 1800.00000, 11.1904, -66.6602, 3008.37, -138.182, 2965.47, 135.419, 2238.26, 113.344, 104.619, 131.654, 94.6307, 31.5339
4779, 2700.00000, 11.1907, -66.6593, 3008.6, -138.18, 2965.66, 135.423, 2238.32, 113.345, 104.627, 131.656, 94.648, 31.5675
4780, 0.00000, 11.191, -66.6583, 3008.83, -138.179, 2965.85, 135.426, 2238.38, 113.346, 104.635, 131.658, 94.6653, 31.601
4780, 900.00000, 11.1913, -66.6574, 3009.07, -138.177, 2966.04, 135.43, 2238.44, 113.347, 104.643, 131.659, 94.6826, 31.6345
4780, 1800.00000, 11.1913, -66.6573, 3009.04, -138.177, 2966.06, 135.43, 2238.44, 113.347, 104.642, 131.659, 94.6818, 31.6301
4780, 2700.00000, 11.1912, -66.6571, 3009.01, -138.178, 2966.09, 135.43, 2238.43, 113.347, 104.641, 131.658, 94.6809, 31.6257
4781, 0.00000, 11.1912, -66.6569, 3008.98, -138.179, 2966.12, 135.43, 2238.42, 113.348, 104.64, 131.657, 94.6801, 31.6213
4781, 900.00000, 11.1912, -66.6568, 3008.95, -138.179, 2966.14, 135.43, 2238.41, 113.348, 104.639, 131.657, 94.6793, 31.6169
4781, 1800.00000, 11.1914, -66.6559, 3009.15, -138.178, 2966.35, 135.433, 2238.46, 113.349, 104.646, 131.658, 94.6956, 31.6463
4781, 2700.00000, 11.1916, -66.6551, 3009.36, -138.177, 2966.56, 135.437, 2238.51, 113.349, 104.654, 131.659, 94.712, 31.6756
4782, 0.00000, 11.1919, -66.6542, 3009.56, -138.175, 2966.76, 135.44, 2238.55, 113.35, 104.661, 131.661, 94.7283, 31.7049
4782, 900.00000, 11.1921, -66.6534, 3009.77, -138.174, 2966.97, 135.444, 2238.6, 113.351, 104.668, 131.662, 94.7447, 31.7342
4782, 1800.00000, 11.1908, -66.6572, 3008.74, -138.182, 2966.12, 135.428, 2238.34, 113.347, 104.632, 131.654, 94.6676, 31.5864
4782, 2700.00000, 11.1895, -66.661, 3007.72, -138.19, 2965.27, 135.412, 2238.09, 113.343, 104.597, 131.646, 94.5912, 31.4384
4783, 0.00000, 11.1921, -66.6277, 3007.06, -138.188, 2964.62, 135.409, 2238.6, 113.377, 104.573, 131.648, 94.5217, 31.3035
4783, 900.00000, 11.1931, -66.6146, 3008.36, -138.146, 2964.5, 135.458, 2238.8, 113.39, 104.618, 131.69, 94.4697, 31.2199
4783, 1800.00000, 11.1942, -66.5957, 3007.88, -138.131, 2963.6, 135.467, 2239.03, 113.409, 104.602, 131.705, 94.3668, 31.0226
4783, 2700.00000, 11.1943, -66.5844, 3007.14, -138.124, 2962.52, 135.467, 2239.05, 113.42, 104.576, 131.713, 94.2592, 30.8155
4784, 0.00000, 11.1944, -66.573, 3006.4, -138.116, 2961.43, 135.466, 2239.07, 113.432, 104.55, 131.72, 94.1529, 30.6082
4784, 900.00000, 11.1945, -66.5616, 3005.66, -138.108, 2960.34, 135.466, 2239.09, 113.443, 104.524, 131.728, 94.0479, 30.4005
4784, 1800.00000, 11.1935, -66.5591, 3004.4, -138.11, 2958.98, 135.452, 2238.89, 113.445, 104.48, 131.726, 93.9293, 30.1599
4784, 2700.00000, 11.1925, -66.5567, 3003.14, -138.112, 2957.62, 135.438, 2238.69, 113.448, 104.436, 131.725, 93.8122, 29.9191
4785, 0.00000, 11.1915, -66.5542, 3001.88, -138.114, 2956.27, 135.424, 2238.49, 113.45, 104.392, 131.723, 93.6967, 29.6778
4785, 900.00000, 11.1905, -66.5517, 3000.61, -138.116, 2954.91, 135.409, 2238.29, 113.453, 104.348, 131.721, 93.5828, 29.4362
4785, 1800.00000, 11.189, -66.5526, 2999.09, -138.124, 2953.5, 135.388, 2237.99, 113.452, 104.295, 131.713, 93.4681, 29.1854
4785, 2700.00000, 11.1876, -66.5534, 2997.57, -138.132, 2952.09, 135.367, 2237.7, 113.451, 104.242, 131.705, 93.3551, 28.9343
4786, 0.00000, 11.1861, -66.5543, 2996.04, -138.14, 2950.68, 135.346, 2237.4, 113.45, 104.189, 131.697, 93.2436, 28.6828
4786, 900.00000, 11.1846, -66.5551, 2994.52, -138.148, 2949.27, 135.325, 2237.1, 113.449, 104.136, 131.689, 93.1337, 28.431
4786, 1800.00000, 11.183, -66.558, 2993, -138.157, 2947.88, 135.302, 2236.79, 113.446, 104.083, 131.68, 93.0296, 28.1909
4786, 2700.00000, 11.1814, -66.5609, 2991.49, -138.166, 2946.49, 135.28, 2236.47, 113.443, 104.03, 131.671, 92.927, 27.9506
4787, 0.00000, 11.1798, -66.5638, 2989.97, -138.175, 2945.1, 135.257, 2236.16, 113.441, 103.977, 131.662, 92.8258, 27.71
4787, 900.00000, 11.1783, -66.5667, 2988.46, -138.184, 2943.71, 135.234, 2235.84, 113.438, 103.924, 131.653, 92.7259, 27.4691
4787, 1800.00000, 11.1765, -66.5726, 2986.96, -138.194, 2942.33, 135.21, 2235.49, 113.432, 103.872, 131.643, 92.6319, 27.2432
4787, 2700.00000, 11.1747, -66.5786, 2985.46, -138.205, 2940.95, 135.186, 2235.14, 113.426, 103.82, 131.633, 92.5391, 27.0171
4788, 0.00000, 11.173, -66.5845, 2983.96, -138.215, 2939.57, 135.161, 2234.78, 113.42, 103.768, 131.622, 92.4475, 26.7908
4788, 900.00000, 11.1712, -66.5905, 2982.47, -138.225, 2938.18, 135.137, 2234.43, 113.414, 103.716, 131.612, 92.357, 26.5643
4788, 1800.00000, 11.169, -66.5986, 2980.69, -138.239, 2936.64, 135.107, 2233.99, 113.406, 103.654, 131.598, 92.2568, 26.3059
4788, 2700.00000, 11.1668, -66.6066, 2978.9, -138.253, 2935.09, 135.077, 2233.55, 113.398, 103.592, 131.584, 92.158, 26.0472
4789, 0.00000, 11.1646, -66.6147, 2977.12, -138.267, 2933.55, 135.047, 2233.11, 113.39, 103.529, 131.57, 92.0608, 25.7883
4789, 900.00000, 11.1624, -66.6228, 2975.34, -138.281, 2932, 135.018, 2232.67, 113.382, 103.467, 131.557, 91.9651, 25.5292
4789, 1800.00000, 11.1608, -66.6274, 2973.95, -138.292, 2930.79, 134.994, 2232.36, 113.377, 103.419, 131.545, 91.8913, 25.3259
4789, 2700.00000, 11.1593, -66.6321, 2972.55, -138.303, 2929.59, 134.971, 2232.04, 113.372, 103.37, 131.534, 91.8185, 25.1225
4790, 0.00000, 11.1577, -66.6368, 2971.15, -138.314, 2928.39, 134.948, 2231.73, 113.367, 103.321, 131.523, 91.7467, 24.9189
4790, 900.00000, 11.1561, -66.6415, 2969.75, -138.325, 2927.18, 134.924, 2231.41, 113.363, 103.273, 131.512, 91.6757, 24.7153
4790, 1800.00000, 11.1544, -66.6472, 2968.43, -138.338, 2926.21, 134.902, 2231.07, 113.357, 103.227, 131.499, 91.6173, 24.5362
4790, 2700.00000, 11.1527, -66.6528, 2967.12, -138.351, 2925.25, 134.88, 2230.73, 113.351, 103.181, 131.486, 91.5596, 24.3571
4791, 0.00000, 11.151, -66.6584, 2965.8, -138.364, 2924.28, 134.858, 2230.39, 113.346, 103.135, 131.473, 91.5026, 24.1779
4791, 900.00000, 11.1493, -66.664, 2964.48, -138.377, 2923.31, 134.835, 2230.05, 113.34, 103.089, 131.461, 91.4463, 23.9986
4791, 1800.00000, 11.1477, -66.6709, 2963.45, -138.39, 2922.67, 134.817, 2229.73, 113.333, 103.053, 131.448, 91.4085, 23.8709
4791, 2700.00000, 11.1461, -66.6779, 2962.42, -138.402, 2922.03, 134.799, 2229.41, 113.326, 103.017, 131.436, 91.3711, 23.7432
4792, 0.00000, 11.1445, -66.6848, 2961.38, -138.414, 2921.39, 134.781, 2229.09, 113.32, 102.981, 131.423, 91.334, 23.6155
4792, 900.00000, 11.1429, -66.6917, 2960.35, -138.427, 2920.74, 134.762, 2228.77, 113.313, 102.945, 131.411, 91.2972, 23.4877
4792, 1800.00000, 11.1412, -66.7023, 2959.51, -138.44, 2920.29, 134.744, 2228.43, 113.302, 102.916, 131.398, 91.2744, 23.4113
4792, 2700.00000, 11.1395, -66.713, 2958.67, -138.454, 2919.84, 134.725, 2228.1, 113.291, 102.886, 131.384, 91.2516, 23.3348
4793, 0.00000, 11.1379, -66.7236, 2957.83, -138.467, 2919.38, 134.707, 2227.76, 113.281, 102.857, 131.371, 91.2289, 23.2583
4793, 900.00000, 11.1362, -66.7343, 2956.99, -138.481, 2918.93, 134.688, 2227.43, 113.27, 102.828, 131.357, 91.2063, 23.1819
4793, 1800.00000, 11.1348, -66.7485, 2956.61, -138.494, 2918.98, 134.673, 2227.16, 113.256, 102.815, 131.344, 91.2145, 23.2122
4793, 2700.00000, 11.1335, -66.7626, 2956.24, -138.508, 2919.03, 134.657, 2226.88, 113.242, 102.802, 131.33, 91.2228, 23.2426
4794, 0.00000, 11.1321, -66.7768, 2955.86, -138.522, 2919.08, 134.642, 2226.61, 113.227, 102.789, 131.316, 91.2311, 23.2729
4794, 900.00000, 11.1307, -66.791, 2955.48, -138.536, 2919.13, 134.626, 2226.33, 113.213, 102.775, 131.302, 91.2395, 23.3032
4794, 1800.00000, 11.1308, -66.7933, 2954.47, -138.573, 2919.21, 134.582, 2226.34, 113.211, 102.74, 131.265, 91.2647, 23.4097
4794, 2700.00000, 11.1256, -66.8555, 2954.84, -138.582, 2919.77, 134.575, 2225.3, 113.149, 102.753, 131.256, 91.3058, 23.5528
4795, 0.00000, 11.1264, -66.8549, 2955.69, -138.579, 2920.48, 134.583, 2225.47, 113.149, 102.783, 131.259, 91.3519, 23.7113
4795, 900.00000, 11.1278, -66.8509, 2956.79, -138.57, 2921.34, 134.6, 2225.76, 113.153, 102.821, 131.268, 91.4035, 23.8782
4795, 1800.00000, 11.1282, -66.8501, 2957.04, -138.568, 2921.47, 134.603, 2225.83, 113.154, 102.83, 131.27, 91.4134, 23.9165
4795, 2700.00000, 11.1286, -66.8492, 2957.29, -138.565, 2921.59, 134.606, 2225.91, 113.155, 102.839, 131.273, 91.4233, 23.9548
4796, 0.00000, 11.129, -66.8483, 2957.54, -138.562, 2921.72, 134.609, 2225.99, 113.156, 102.847, 131.275, 91.4332, 23.9931
4796, 900.00000, 11.1294, -66.8475, 2957.79, -138.56, 2921.85, 134.612, 2226.07, 113.157, 102.856, 131.278, 91.4432, 24.0315
4796, 1800.00000, 11.1312, -66.8419, 2959.28, -138.548, 2923.1, 134.635, 2226.44, 113.162, 102.908, 131.289, 91.5172, 24.2565
4796, 2700.00000, 11.1331, -66.8364, 2960.77, -138.537, 2924.34, 134.659, 2226.81, 113.168, 102.96, 131.301, 91.5924, 24.4813
4797, 0.00000, 11.1349, -66.8308, 2962.26, -138.525, 2925.59, 134.682, 2227.18, 113.173, 103.012, 131.312, 91.6688, 24.7061
4797, 900.00000, 11.1368, -66.8253, 2963.74, -138.514, 2926.84, 134.705, 2227.54, 113.179, 103.064, 131.323, 91.7464, 24.9306
4797, 1800.00000, 11.1403, -66.8143, 2966.71, -138.492, 2929.42, 134.753, 2228.26, 113.19, 103.167, 131.345, 91.9069, 25.3775
4797, 2700.00000, 11.1439, -66.8032, 2969.68, -138.47, 2931.99, 134.8, 2228.97, 113.201, 103.271, 131.368, 92.0722, 25.8237
4798, 0.00000, 11.1475, -66.7922, 2972.66, -138.448, 2934.57, 134.848, 2229.68, 113.212, 103.374, 131.39, 92.242, 26.2692
4798, 900.00000, 11.1511, -66.7811, 2975.63, -138.425, 2937.15, 134.895, 2230.4, 113.223, 103.478, 131.412, 92.4164, 26.714
4798, 1800.00000, 11.1546, -66.7703, 2978.55, -138.404, 2939.65, 134.942, 2231.1, 113.234, 103.58, 131.433, 92.5908, 27.1487
4798, 2700.00000, 11.1581, -66.7595, 2981.46, -138.382, 2942.14, 134.988, 2231.81, 113.245, 103.681, 131.455, 92.7696, 27.5825
4799, 0.00000, 11.1617, -66.7487, 2984.38, -138.36, 2944.64, 135.034, 2232.52, 113.256, 103.783, 131.477, 92.9528, 28.0156
4799, 900.00000, 11.1652, -66.7379, 2987.3, -138.338, 2947.14, 135.081, 2233.23, 113.267, 103.885, 131.499, 93.1404, 28.4479
4799, 1800.00000, 11.1679, -66.73, 2989.5, -138.321, 2948.94, 135.115, 2233.77, 113.274, 103.961, 131.516, 93.2824, 28.7729
4799, 2700.00000, 11.1707, -66.722, 2991.7, -138.304, 2950.75, 135.149, 2234.32, 113.282, 104.038, 131.533, 93.4269, 29.0973
4800, 0.00000, 11.1734, -66.714, 2993.89, -138.286, 2952.55, 135.183, 2234.86, 113.291, 104.114, 131.55, 93.574, 29.4212
