hour,t(sec),V1,VAngle1,I1,IAngle1
0, 900.00000, 2369.59, 118.256, 14.7042, -88.3088
0, 1800.00000, 2370, 118.268, 14.5862, -88.2973
0, 2700.00000, 2370.42, 118.279, 14.4681, -88.2857
1, 0.00000, 2370.84, 118.291, 14.35, -88.2742
1, 900.00000, 2371.25, 118.302, 14.2319, -88.2626
1, 1800.00000, 2371.51, 118.309, 14.153, -88.256
1, 2700.00000, 2371.77, 118.316, 14.0742, -88.2493
2, 0.00000, 2372.03, 118.322, 13.9954, -88.2427
2, 900.00000, 2372.29, 118.329, 13.9166, -88.236
2, 1800.00000, 2372.4, 118.332, 13.8795, -88.2333
2, 2700.00000, 2372.51, 118.334, 13.8423, -88.2306
3, 0.00000, 2372.61, 118.337, 13.8052, -88.2279
3, 900.00000, 2372.72, 118.34, 13.7681, -88.2252
3, 1800.00000, 2372.53, 118.334, 13.805, -88.2312
3, 2700.00000, 2372.34, 118.328, 13.8419, -88.2373
4, 0.00000, 2372.16, 118.322, 13.8788, -88.2433
4, 900.00000, 2371.97, 118.316, 13.9158, -88.2494
4, 1800.00000, 2371.38, 118.298, 14.0507, -88.2674
4, 2700.00000, 2370.8, 118.28, 14.1857, -88.2855
5, 0.00000, 2370.21, 118.262, 14.3207, -88.3035
5, 900.00000, 2369.62, 118.243, 14.4557, -88.3216
5, 1800.00000, 2368.54, 118.21, 14.7072, -88.3555
5, 2700.00000, 2367.64, 118.171, 14.9585, -88.3942
6, 0.00000, 2366.55, 118.137, 15.21, -88.4282
6, 900.00000, 2365.47, 118.103, 15.4614, -88.462
6, 1800.00000, 2364.96, 118.087, 15.5692, -88.4785
6, 2700.00000, 2364.54, 118.072, 15.6771, -88.4926
7, 0.00000, 2364.03, 118.056, 15.7849, -88.5091
7, 900.00000, 2363.52, 118.039, 15.8928, -88.5256
7, 1800.00000, 2363.65, 118.091, 15.9025, -88.4744
7, 2700.00000, 2363.7, 118.118, 15.9121, -88.4469
8, 0.00000, 2363.74, 118.142, 15.9218, -88.4226
8, 900.00000, 2363.78, 118.167, 15.9316, -88.3982
8, 1800.00000, 2363.94, 118.188, 15.8953, -88.3768
8, 2700.00000, 2364.11, 118.21, 15.8591, -88.3554
9, 0.00000, 2364.28, 118.231, 15.8228, -88.3339
9, 900.00000, 2364.44, 118.253, 15.7866, -88.3125
9, 1800.00000, 2364.49, 118.26, 15.7807, -88.305
9, 2700.00000, 2364.55, 118.268, 15.7748, -88.2974
10, 0.00000, 2364.6, 118.275, 15.7689, -88.2899
10, 900.00000, 2364.66, 118.283, 15.763, -88.2824
10, 1800.00000, 2364.81, 118.29, 15.7209, -88.2755
10, 2700.00000, 2364.97, 118.296, 15.6789, -88.2686
11, 0.00000, 2365.12, 118.303, 15.6368, -88.2617
11, 900.00000, 2365.28, 118.31, 15.5947, -88.2548
11, 1800.00000, 2365.44, 118.315, 15.5457, -88.2502
11, 2700.00000, 2365.61, 118.32, 15.4967, -88.2455
12, 0.00000, 2365.78, 118.324, 15.4477, -88.2409
12, 900.00000, 2365.94, 118.329, 15.3987, -88.2363
12, 1800.00000, 2366.04, 118.329, 15.3659, -88.2364
12, 2700.00000, 2366.13, 118.328, 15.3331, -88.2366
13, 0.00000, 2366.22, 118.328, 15.3002, -88.2368
13, 900.00000, 2366.31, 118.328, 15.2674, -88.237
13, 1800.00000, 2366.31, 118.322, 15.2638, -88.243
13, 2700.00000, 2366.32, 118.316, 15.2603, -88.249
14, 0.00000, 2366.32, 118.31, 15.2567, -88.2551
14, 900.00000, 2366.32, 118.304, 15.2531, -88.2611
14, 1800.00000, 2366.15, 118.282, 15.2917, -88.2835
14, 2700.00000, 2365.98, 118.259, 15.3304, -88.3058
15, 0.00000, 2365.81, 118.237, 15.3691, -88.3281
15, 900.00000, 2365.63, 118.215, 15.4078, -88.3504
15, 1800.00000, 2364.9, 118.172, 15.6084, -88.3933
15, 2700.00000, 2364.16, 118.125, 15.809, -88.4401
16, 0.00000, 2363.42, 118.08, 16.0097, -88.485
16, 900.00000, 2362.56, 118.013, 16.2105, -88.5519
16, 1800.00000, 2360.89, 117.967, 16.7037, -88.5978
16, 2700.00000, 2359.35, 117.916, 17.1971, -88.6493
17, 0.00000, 2357.66, 117.87, 17.6906, -88.6952
17, 900.00000, 2355.97, 117.824, 18.1842, -88.741
17, 1800.00000, 2355.68, 117.816, 18.306, -88.7495
17, 2700.00000, 2355.27, 117.805, 18.4279, -88.7601
18, 0.00000, 2354.87, 117.794, 18.5499, -88.7707
18, 900.00000, 2354.46, 117.784, 18.6719, -88.7813
18, 1800.00000, 2354.71, 117.791, 18.616, -88.7736
18, 2700.00000, 2354.95, 117.799, 18.56, -88.7659
19, 0.00000, 2355.2, 117.807, 18.504, -88.7581
19, 900.00000, 2355.45, 117.815, 18.4479, -88.7503
19, 1800.00000, 2355.85, 117.827, 18.3511, -88.7384
19, 2700.00000, 2356.25, 117.839, 18.2543, -88.7264
20, 0.00000, 2356.65, 117.851, 18.1575, -88.7144
20, 900.00000, 2357.05, 117.863, 18.0607, -88.7024
20, 1800.00000, 2357.78, 117.884, 17.8749, -88.6809
20, 2700.00000, 2358.52, 117.906, 17.689, -88.6593
21, 0.00000, 2359.25, 117.927, 17.5031, -88.6378
21, 900.00000, 2359.98, 117.949, 17.3172, -88.6162
21, 1800.00000, 2361.03, 117.98, 17.0423, -88.5855
21, 2700.00000, 2362.08, 118.01, 16.7676, -88.5548
22, 0.00000, 2363.03, 118.039, 16.4931, -88.5265
22, 900.00000, 2364.08, 118.069, 16.2184, -88.4957
22, 1800.00000, 2365.16, 118.101, 15.9259, -88.4641
22, 2700.00000, 2366.24, 118.132, 15.6335, -88.4326
23, 0.00000, 2367.23, 118.162, 15.3413, -88.4034
23, 900.00000, 2368.33, 118.194, 15.0487, -88.3714
23, 1800.00000, 2369.06, 118.215, 14.8429, -88.3504
23, 2700.00000, 2369.79, 118.236, 14.6369, -88.3293
24, 0.00000, 2370.43, 118.254, 14.4308, -88.3107
