hour,t(sec),"P1 (kW)","Q1 (kvar)","P2 (kW)","Q2 (kvar)","P3 (kW)","Q3 (kvar)"
4488, 900.00000, -1880.78, -635.489, -1558.1, -453.761, -1673.49, -481.448
4488, 1800.00000, -1879.48, -629.299, -1551.14, -445.151, -1667, -472.592
4488, 2700.00000, -1859.6, -622.172, -1539.84, -442.44, -1654.43, -470.149
4489, 0.00000, -1857.54, -615.293, -1535.37, -434.915, -1649.87, -462.349
4489, 900.00000, -1840.23, -609.626, -1524.07, -432.22, -1637.37, -459.718
4489, 1800.00000, -1837.76, -602.75, -1521.09, -425.776, -1634.22, -453.086
4489, 2700.00000, -1824.31, -599.411, -1511.76, -424.367, -1623.6, -451.472
4490, 0.00000, -1802.2, -591.112, -1503.22, -423.348, -1613.02, -450.655
4490, 900.00000, -1807.58, -588.718, -1499.9, -416.718, -1610.22, -443.503
4490, 1800.00000, -1790.4, -583.569, -1493.47, -417.222, -1602.26, -444.209
4490, 2700.00000, -1798.17, -582.801, -1493.06, -412.477, -1602.51, -439.04
4491, 0.00000, -1782.61, -578.517, -1487, -413.105, -1595.16, -439.899
4491, 900.00000, -1789.33, -577.132, -1486.93, -408.542, -1595.38, -434.821
4491, 1800.00000, -1780.02, -576.957, -1484.63, -411.872, -1592.29, -438.369
4491, 2700.00000, -1793.17, -579.655, -1489.45, -410.487, -1597.75, -436.454
4492, 0.00000, -1784.28, -579.582, -1488.28, -414.299, -1595.62, -440.441
4492, 900.00000, -1797.99, -582.609, -1492.94, -412.827, -1601.08, -438.475
4492, 1800.00000, -1794.09, -586.024, -1495.88, -419.497, -1603.84, -445.667
4492, 2700.00000, -1816.32, -594.432, -1505.47, -421.19, -1615.35, -447.171
4493, 0.00000, -1811.21, -597.021, -1509.68, -428.412, -1619.05, -454.954
4493, 900.00000, -1835.17, -606.434, -1519.2, -430.072, -1630.66, -456.351
4493, 1800.00000, -1852.47, -612.287, -1530.64, -432.913, -1644.2, -459.723
4493, 2700.00000, -1856.47, -620.374, -1535.86, -440.849, -1650.15, -468.257
4494, 0.00000, -1876.86, -627.921, -1547.89, -443.963, -1664.19, -471.62
4494, 900.00000, -1878.06, -634.428, -1553.3, -452.01, -1670.06, -480.394
4494, 1800.00000, -1905.36, -646.247, -1568.04, -457.187, -1686.65, -485.192
4494, 2700.00000, -1882.92, -650.773, -1563.07, -467.481, -1680.91, -495.789
4495, 0.00000, -1881.68, -657.654, -1565.54, -471.683, -1684.47, -499.494
4495, 900.00000, -1870.8, -663.462, -1567.19, -481.71, -1685.57, -509.811
4495, 1800.00000, -1877.12, -672.039, -1569.11, -485.733, -1688.66, -513.116
4495, 2700.00000, -1861.07, -676.253, -1567.49, -494.975, -1686.09, -522.493
4496, 0.00000, -1871.05, -685.549, -1572.75, -499.427, -1692.54, -526.231
4496, 900.00000, -1854.43, -689.438, -1571.06, -508.635, -1689.84, -535.606
4496, 1800.00000, -1871.63, -699.027, -1579.09, -512.307, -1698.89, -538.314
4496, 2700.00000, -1859.6, -701.695, -1579.99, -520.702, -1698.15, -546.59
4497, 0.00000, -1877.88, -711.967, -1587.55, -524.183, -1706.87, -549.031
4497, 900.00000, -1864.39, -713.79, -1588.45, -532.587, -1706, -557.391
4497, 1800.00000, -1887.35, -724.696, -1597.83, -535.557, -1717.41, -559.841
4497, 2700.00000, -1901.64, -730.611, -1607.73, -538.78, -1728.74, -563.074
4498, 0.00000, -1899.76, -737.07, -1609.68, -546.304, -1730.4, -570.722
4498, 900.00000, -1916.03, -744.108, -1619.7, -549.61, -1741.78, -573.799
4498, 1800.00000, -1910.69, -747.864, -1620.71, -556.107, -1741.66, -580.157
4498, 2700.00000, -1926.68, -754.064, -1629.26, -558.162, -1750.95, -581.475
4499, 0.00000, -1919.34, -756.734, -1629.78, -564.457, -1750.25, -587.731
4499, 900.00000, -1936.84, -763.821, -1638.15, -566.415, -1759.6, -588.927
4499, 1800.00000, -1929.62, -765.184, -1639.56, -572.339, -1759.42, -594.779
4499, 2700.00000, -1950.33, -772.787, -1648.36, -573.694, -1769.23, -595.216
4500, 0.00000, -1941.17, -773.059, -1649.6, -579.562, -1768.75, -601.105
4500, 900.00000, -1963.58, -781.661, -1658.35, -580.888, -1778.63, -601.416
4500, 1800.00000, -1957.75, -783.691, -1663.06, -588.769, -1782.17, -609.743
4500, 2700.00000, -1986.58, -795.793, -1675.89, -592.362, -1796.92, -612.619
4501, 0.00000, -2008.48, -803.819, -1689.25, -596.197, -1811.69, -616.199
4501, 900.00000, -2009.4, -809.787, -1694.03, -604.086, -1815.92, -624.245
4501, 1800.00000, -2033.34, -819.013, -1707.47, -607.74, -1830.72, -627.348
4501, 2700.00000, -2030.34, -822.753, -1712.16, -615.355, -1834.66, -635.361
4502, 0.00000, -2056.97, -833.61, -1725.2, -618.818, -1849.45, -638.183
4502, 900.00000, -2051.15, -835.684, -1730.16, -626.595, -1853.27, -646.453
4502, 1800.00000, -2079.79, -846.744, -1742.63, -629.072, -1867.71, -648.27
4502, 2700.00000, -2099.77, -852.66, -1755.39, -631.684, -1881.86, -650.81
4503, 0.00000, -2100.77, -857.87, -1758.94, -638.102, -1884.99, -657.421
4503, 900.00000, -2123.32, -865.293, -1771.81, -640.799, -1899.18, -659.727
4503, 1800.00000, -2120.82, -867.463, -1774.08, -645.797, -1900.84, -665.177
4503, 2700.00000, -2144.31, -874.528, -1784.9, -646.706, -1913.26, -665.673
4504, 0.00000, -2139.18, -875.189, -1786.93, -651.63, -1914.4, -671.13
4504, 900.00000, -2164.87, -883.586, -1797.65, -652.496, -1926.9, -671.443
4504, 1800.00000, -2156.67, -880.388, -1798.75, -655.194, -1926.85, -674.928
4504, 2700.00000, -2182.38, -886.887, -1807.5, -653.366, -1937.45, -672.541
4505, 0.00000, -2171.92, -882.438, -1807.86, -655.749, -1936.54, -675.803
4505, 900.00000, -2197.89, -889.104, -1816.57, -653.895, -1947.14, -673.379
4505, 1800.00000, -2216.62, -887.579, -1825.12, -649.407, -1956.79, -669.037
4505, 2700.00000, -2215.86, -885.481, -1822.94, -648.11, -1954.14, -668.157
4506, 0.00000, -2234.9, -884.233, -1830.67, -643.309, -1962.77, -663.239
4506, 900.00000, -2233.01, -881.507, -1828.56, -642.046, -1960.16, -662.498
4506, 1800.00000, -2251.09, -878.821, -1834.45, -635.512, -1966.78, -655.732
4506, 2700.00000, -2248.86, -873.834, -1833.12, -632.771, -1964.75, -653.604
4507, 0.00000, -2300.72, -878.293, -1852.31, -626.65, -1985.9, -647.143
4507, 900.00000, -2275.36, -867.923, -1839.59, -623.064, -1971.64, -644.228
4507, 1800.00000, -2283.81, -867.359, -1839.82, -618.459, -1972.93, -639.347
4507, 2700.00000, -2267.29, -862.795, -1832.5, -618.498, -1964.65, -639.966
4508, 0.00000, -2275.65, -862.033, -1834, -614.461, -1967.03, -635.688
4508, 900.00000, -2260.11, -858.088, -1826.5, -614.404, -1958.74, -636.196
4508, 1800.00000, -2259.84, -851.466, -1822.86, -606.625, -1955.42, -628.297
4508, 2700.00000, -2238.39, -843.48, -1808.76, -602.204, -1940.27, -624.281
4509, 0.00000, -2233.86, -834.447, -1804.02, -593.974, -1935.61, -616.129
4509, 900.00000, -2214.01, -827.392, -1790.11, -589.672, -1920.51, -611.985
4509, 1800.00000, -2173.93, -806.931, -1767.27, -578.687, -1895.13, -601.708
4509, 2700.00000, -2157.22, -789.864, -1750.05, -562.274, -1877.43, -585.17
4510, 0.00000, -2121.24, -772.255, -1724.33, -550.087, -1849.85, -573.358
4510, 900.00000, -2078.77, -750.72, -1699.58, -538.392, -1822.44, -562.301
4510, 1800.00000, -2063.68, -734.963, -1683.22, -522.818, -1805.45, -546.395
4510, 2700.00000, -2029.69, -718.675, -1659.2, -511.797, -1779.47, -535.595
4511, 0.00000, -2008.15, -699.224, -1643.29, -496.479, -1762.52, -520.411
4511, 900.00000, -1974.57, -683.175, -1619.65, -485.703, -1736.61, -509.651
4511, 1800.00000, -1946.82, -671.197, -1601.45, -478.777, -1716.63, -502.877
4511, 2700.00000, -1935.95, -658.655, -1591.74, -467.691, -1706.34, -491.65
4512, 0.00000, -1911.77, -648.593, -1574.71, -461.26, -1687.61, -485.193
