hour,t(sec),V1,VAngle1,V2,VAngle2,V3,VAngle3,I1,IAngle1,I2,IAngle2,I3,IAngle3
4776, 900.00000, 27.8029, -57.2827, 30.7753, -177.997, 29.6764, 57.1817, 5560.89, 122.715, 6155.51, 2.00044, 5935.95, -122.821
4776, 1800.00000, 27.8075, -57.2792, 30.7782, -177.996, 29.6793, 57.1841, 5561.8, 122.718, 6156.07, 2.00181, 5936.52, -122.819
4776, 2700.00000, 27.8121, -57.2757, 30.781, -177.995, 29.6822, 57.1866, 5562.71, 122.722, 6156.63, 2.00319, 5937.09, -122.816
4777, 0.00000, 27.8166, -57.2722, 30.7839, -177.993, 29.6851, 57.189, 5563.62, 122.725, 6157.2, 2.00457, 5937.66, -122.814
4777, 900.00000, 27.8212, -57.2687, 30.7867, -177.992, 29.688, 57.1915, 5564.53, 122.729, 6157.76, 2.00595, 5938.23, -122.811
4777, 1800.00000, 27.8246, -57.2661, 30.7888, -177.991, 29.6901, 57.1932, 5565.21, 122.732, 6158.19, 2.00694, 5938.64, -122.81
4777, 2700.00000, 27.828, -57.2634, 30.791, -177.99, 29.6921, 57.195, 5565.89, 122.734, 6158.61, 2.00794, 5939.04, -122.808
4778, 0.00000, 27.8314, -57.2608, 30.7931, -177.989, 29.6942, 57.1967, 5566.57, 122.737, 6159.03, 2.00894, 5939.45, -122.806
4778, 900.00000, 27.8349, -57.2581, 30.7953, -177.988, 29.6963, 57.1985, 5567.25, 122.74, 6159.46, 2.00994, 5939.86, -122.804
4778, 1800.00000, 27.8375, -57.2561, 30.7969, -177.987, 29.6979, 57.1999, 5567.77, 122.742, 6159.78, 2.01072, 5940.19, -122.803
4778, 2700.00000, 27.8401, -57.254, 30.7985, -177.986, 29.6996, 57.2013, 5568.29, 122.744, 6160.1, 2.0115, 5940.52, -122.801
4779, 0.00000, 27.8427, -57.252, 30.8001, -177.986, 29.7013, 57.2027, 5568.82, 122.746, 6160.42, 2.01229, 5940.85, -122.8
4779, 900.00000, 27.8453, -57.2499, 30.8017, -177.985, 29.7029, 57.2042, 5569.34, 122.748, 6160.74, 2.01307, 5941.18, -122.799
4779, 1800.00000, 27.8461, -57.2494, 30.8022, -177.985, 29.7034, 57.2045, 5569.48, 122.748, 6160.83, 2.01329, 5941.26, -122.798
4779, 2700.00000, 27.8468, -57.2489, 30.8027, -177.985, 29.7038, 57.2049, 5569.63, 122.749, 6160.93, 2.01351, 5941.35, -122.798
4780, 0.00000, 27.8475, -57.2483, 30.8031, -177.984, 29.7042, 57.2052, 5569.78, 122.749, 6161.02, 2.01374, 5941.43, -122.797
4780, 900.00000, 27.8483, -57.2478, 30.8036, -177.984, 29.7047, 57.2056, 5569.92, 122.75, 6161.11, 2.01396, 5941.52, -122.797
4780, 1800.00000, 27.8482, -57.2479, 30.8036, -177.984, 29.7046, 57.2056, 5569.91, 122.75, 6161.11, 2.01397, 5941.52, -122.797
4780, 2700.00000, 27.8482, -57.248, 30.8036, -177.984, 29.7046, 57.2055, 5569.91, 122.75, 6161.11, 2.01399, 5941.51, -122.797
4781, 0.00000, 27.8482, -57.2481, 30.8036, -177.984, 29.7046, 57.2055, 5569.9, 122.75, 6161.11, 2.01401, 5941.51, -122.797
4781, 900.00000, 27.8481, -57.2482, 30.8036, -177.984, 29.7046, 57.2055, 5569.89, 122.75, 6161.11, 2.01403, 5941.51, -122.797
4781, 1800.00000, 27.8488, -57.2477, 30.804, -177.984, 29.7051, 57.2059, 5570.03, 122.75, 6161.19, 2.01425, 5941.6, -122.797
4781, 2700.00000, 27.8495, -57.2472, 30.8044, -177.984, 29.7056, 57.2063, 5570.17, 122.751, 6161.28, 2.01447, 5941.69, -122.796
4782, 0.00000, 27.8502, -57.2466, 30.8048, -177.983, 29.706, 57.2067, 5570.3, 122.751, 6161.36, 2.01469, 5941.79, -122.796
4782, 900.00000, 27.8509, -57.2461, 30.8053, -177.983, 29.7065, 57.2071, 5570.44, 122.752, 6161.44, 2.01491, 5941.88, -122.796
4782, 1800.00000, 27.8476, -57.2486, 30.8033, -177.984, 29.7045, 57.2053, 5569.79, 122.749, 6161.04, 2.01394, 5941.48, -122.797
4782, 2700.00000, 27.8444, -57.2511, 30.8012, -177.985, 29.7024, 57.2036, 5569.15, 122.747, 6160.65, 2.01297, 5941.08, -122.799
4783, 0.00000, 27.8412, -57.2536, 30.7992, -177.986, 29.7004, 57.2019, 5568.5, 122.744, 6160.25, 2.012, 5940.68, -122.801
4783, 900.00000, 27.8379, -57.2561, 30.7972, -177.987, 29.6984, 57.2002, 5567.86, 122.742, 6159.85, 2.01103, 5940.28, -122.803
4783, 1800.00000, 27.8328, -57.2602, 30.7941, -177.988, 29.695, 57.1973, 5566.83, 122.737, 6159.22, 2.00948, 5939.6, -122.805
4783, 2700.00000, 27.8276, -57.2642, 30.7909, -177.99, 29.6916, 57.1944, 5565.81, 122.733, 6158.6, 2.00792, 5938.94, -122.808
4784, 0.00000, 27.8225, -57.2682, 30.7878, -177.992, 29.6882, 57.1915, 5564.78, 122.729, 6157.97, 2.00636, 5938.27, -122.811
4784, 900.00000, 27.8173, -57.2722, 30.7846, -177.993, 29.6848, 57.1886, 5563.75, 122.725, 6157.35, 2.00481, 5937.6, -122.814
4784, 1800.00000, 27.8117, -57.2766, 30.7812, -177.995, 29.6811, 57.1853, 5562.63, 122.721, 6156.67, 2.00311, 5936.86, -122.818
4784, 2700.00000, 27.8061, -57.2811, 30.7778, -177.996, 29.6773, 57.1821, 5561.51, 122.716, 6155.99, 2.00141, 5936.12, -122.821
4785, 0.00000, 27.8004, -57.2855, 30.7743, -177.998, 29.6736, 57.1789, 5560.39, 122.712, 6155.31, 1.99972, 5935.38, -122.824
4785, 900.00000, 27.7948, -57.2899, 30.7709, -178, 29.6699, 57.1757, 5559.27, 122.708, 6154.63, 1.99802, 5934.64, -122.827
4785, 1800.00000, 27.7892, -57.2942, 30.7675, -178.001, 29.6662, 57.1726, 5558.16, 122.703, 6153.95, 1.99635, 5933.93, -122.83
4785, 2700.00000, 27.7837, -57.2986, 30.764, -178.003, 29.6626, 57.1695, 5557.05, 122.699, 6153.27, 1.99469, 5933.21, -122.834
4786, 0.00000, 27.7781, -57.3029, 30.7606, -178.005, 29.659, 57.1664, 5555.94, 122.694, 6152.59, 1.99302, 5932.5, -122.837
4786, 900.00000, 27.7725, -57.3073, 30.7572, -178.006, 29.6554, 57.1633, 5554.82, 122.69, 6151.91, 1.99135, 5931.78, -122.84
4786, 1800.00000, 27.7672, -57.3114, 30.7539, -178.008, 29.6519, 57.1603, 5553.77, 122.686, 6151.26, 1.98976, 5931.09, -122.843
4786, 2700.00000, 27.7619, -57.3156, 30.7507, -178.009, 29.6484, 57.1573, 5552.71, 122.682, 6150.62, 1.98816, 5930.4, -122.846
4787, 0.00000, 27.7566, -57.3197, 30.7474, -178.011, 29.6449, 57.1543, 5551.66, 122.678, 6149.98, 1.98657, 5929.71, -122.849
4787, 900.00000, 27.7513, -57.3238, 30.7442, -178.013, 29.6414, 57.1513, 5550.6, 122.673, 6149.33, 1.98497, 5929.02, -122.852
4787, 1800.00000, 27.7464, -57.3276, 30.7412, -178.014, 29.6381, 57.1485, 5549.61, 122.669, 6148.73, 1.98346, 5928.36, -122.855
4787, 2700.00000, 27.7414, -57.3315, 30.7381, -178.016, 29.6348, 57.1456, 5548.62, 122.666, 6148.13, 1.98195, 5927.7, -122.858
4788, 0.00000, 27.7365, -57.3353, 30.7351, -178.017, 29.6314, 57.1427, 5547.64, 122.662, 6147.53, 1.98044, 5927.04, -122.861
4788, 900.00000, 27.7315, -57.3391, 30.7321, -178.018, 29.6281, 57.1399, 5546.65, 122.658, 6146.93, 1.97893, 5926.39, -122.864
4788, 1800.00000, 27.726, -57.3434, 30.7287, -178.02, 29.6244, 57.1367, 5545.55, 122.654, 6146.25, 1.97726, 5925.66, -122.867
4788, 2700.00000, 27.7204, -57.3477, 30.7253, -178.022, 29.6208, 57.1336, 5544.45, 122.649, 6145.58, 1.97559, 5924.94, -122.87
4789, 0.00000, 27.7149, -57.352, 30.7219, -178.023, 29.6171, 57.1305, 5543.34, 122.645, 6144.91, 1.97392, 5924.21, -122.873
4789, 900.00000, 27.7094, -57.3563, 30.7185, -178.025, 29.6135, 57.1273, 5542.24, 122.641, 6144.24, 1.97226, 5923.49, -122.876
4789, 1800.00000, 27.7051, -57.3596, 30.7159, -178.026, 29.6106, 57.1249, 5541.38, 122.637, 6143.71, 1.97095, 5922.93, -122.879
4789, 2700.00000, 27.7008, -57.3629, 30.7132, -178.028, 29.6078, 57.1225, 5540.52, 122.634, 6143.18, 1.96965, 5922.38, -122.881
4790, 0.00000, 27.6965, -57.3662, 30.7105, -178.029, 29.605, 57.1201, 5539.66, 122.631, 6142.65, 1.96835, 5921.82, -122.884
4790, 900.00000, 27.6922, -57.3695, 30.7079, -178.03, 29.6022, 57.1177, 5538.81, 122.627, 6142.12, 1.96704, 5921.26, -122.886
4790, 1800.00000, 27.6886, -57.3722, 30.7056, -178.031, 29.6, 57.1159, 5538.09, 122.625, 6141.67, 1.96599, 5920.85, -122.888
4790, 2700.00000, 27.685, -57.3748, 30.7033, -178.032, 29.5979, 57.1142, 5537.38, 122.622, 6141.21, 1.96493, 5920.43, -122.89
4791, 0.00000, 27.6814, -57.3775, 30.701, -178.033, 29.5958, 57.1124, 5536.67, 122.619, 6140.76, 1.96387, 5920.02, -122.891
4791, 900.00000, 27.6779, -57.3801, 30.6987, -178.034, 29.5937, 57.1107, 5535.96, 122.617, 6140.31, 1.96282, 5919.6, -122.893
4791, 1800.00000, 27.6755, -57.3819, 30.6971, -178.035, 29.5925, 57.1097, 5535.49, 122.615, 6140, 1.96214, 5919.35, -122.894
4791, 2700.00000, 27.6731, -57.3836, 30.6956, -178.036, 29.5912, 57.1087, 5535.02, 122.613, 6139.68, 1.96145, 5919.11, -122.895
4792, 0.00000, 27.6708, -57.3853, 30.694, -178.036, 29.59, 57.1076, 5534.54, 122.611, 6139.37, 1.96077, 5918.86, -122.896
4792, 900.00000, 27.6684, -57.387, 30.6924, -178.037, 29.5887, 57.1066, 5534.07, 122.61, 6139.06, 1.96009, 5918.61, -122.897
4792, 1800.00000, 27.6671, -57.3879, 30.6916, -178.037, 29.5881, 57.1061, 5533.83, 122.609, 6138.9, 1.95973, 5918.49, -122.898
4792, 2700.00000, 27.6659, -57.3888, 30.6908, -178.038, 29.5875, 57.1056, 5533.58, 122.608, 6138.73, 1.95938, 5918.37, -122.898
4793, 0.00000, 27.6647, -57.3897, 30.6899, -178.038, 29.5869, 57.1052, 5533.33, 122.607, 6138.57, 1.95902, 5918.25, -122.899
4793, 900.00000, 27.6634, -57.3905, 30.6891, -178.038, 29.5862, 57.1047, 5533.09, 122.606, 6138.4, 1.95867, 5918.13, -122.899
4793, 1800.00000, 27.6646, -57.3897, 30.6898, -178.038, 29.587, 57.1054, 5533.31, 122.607, 6138.54, 1.95901, 5918.28, -122.899
4793, 2700.00000, 27.6657, -57.3888, 30.6904, -178.038, 29.5878, 57.106, 5533.53, 122.608, 6138.67, 1.95935, 5918.44, -122.898
4794, 0.00000, 27.6668, -57.3879, 30.6911, -178.037, 29.5886, 57.1067, 5533.76, 122.609, 6138.8, 1.95969, 5918.59, -122.897
4794, 900.00000, 27.6679, -57.387, 30.6918, -178.037, 29.5894, 57.1074, 5533.98, 122.61, 6138.94, 1.96003, 5918.75, -122.897
4794, 1800.00000, 27.6713, -57.3844, 30.6939, -178.036, 29.5914, 57.1091, 5534.66, 122.612, 6139.36, 1.96102, 5919.15, -122.895
4794, 2700.00000, 27.6747, -57.3818, 30.6961, -178.035, 29.5935, 57.1109, 5535.33, 122.615, 6139.79, 1.96201, 5919.56, -122.893
4795, 0.00000, 27.6781, -57.3793, 30.6982, -178.034, 29.5955, 57.1126, 5536.01, 122.617, 6140.22, 1.96301, 5919.96, -122.891
4795, 900.00000, 27.6815, -57.3767, 30.7004, -178.033, 29.5976, 57.1143, 5536.69, 122.62, 6140.65, 1.964, 5920.36, -122.89
4795, 1800.00000, 27.6822, -57.3761, 30.7009, -178.033, 29.5979, 57.1145, 5536.83, 122.621, 6140.74, 1.96418, 5920.43, -122.889
4795, 2700.00000, 27.6829, -57.3756, 30.7013, -178.033, 29.5982, 57.1148, 5536.97, 122.621, 6140.83, 1.96436, 5920.49, -122.889
4796, 0.00000, 27.6836, -57.3751, 30.7018, -178.033, 29.5985, 57.115, 5537.11, 122.622, 6140.92, 1.96454, 5920.55, -122.889
4796, 900.00000, 27.6843, -57.3746, 30.7023, -178.032, 29.5988, 57.1153, 5537.25, 122.622, 6141.02, 1.96472, 5920.61, -122.889
4796, 1800.00000, 27.689, -57.371, 30.7052, -178.031, 29.6018, 57.1178, 5538.18, 122.626, 6141.6, 1.96613, 5921.19, -122.886
4796, 2700.00000, 27.6937, -57.3674, 30.7082, -178.03, 29.6047, 57.1203, 5539.12, 122.629, 6142.19, 1.96753, 5921.78, -122.883
4797, 0.00000, 27.6984, -57.3638, 30.7111, -178.028, 29.6077, 57.1228, 5540.06, 122.633, 6142.77, 1.96893, 5922.36, -122.881
4797, 900.00000, 27.7031, -57.3602, 30.7141, -178.027, 29.6106, 57.1253, 5541, 122.637, 6143.35, 1.97033, 5922.95, -122.878
4797, 1800.00000, 27.7126, -57.3529, 30.72, -178.024, 29.6168, 57.1306, 5542.89, 122.644, 6144.52, 1.97318, 5924.16, -122.873
4797, 2700.00000, 27.7221, -57.3456, 30.7258, -178.021, 29.6229, 57.1358, 5544.78, 122.651, 6145.69, 1.97604, 5925.37, -122.868
4798, 0.00000, 27.7316, -57.3383, 30.7317, -178.019, 29.6291, 57.141, 5546.68, 122.659, 6146.86, 1.9789, 5926.59, -122.862
4798, 900.00000, 27.7412, -57.331, 30.7376, -178.016, 29.6352, 57.1463, 5548.58, 122.666, 6148.03, 1.98176, 5927.8, -122.857
4798, 1800.00000, 27.7505, -57.3238, 30.7434, -178.013, 29.6412, 57.1514, 5550.43, 122.673, 6149.17, 1.98454, 5928.98, -122.852
4798, 2700.00000, 27.7598, -57.3166, 30.7492, -178.01, 29.6472, 57.1565, 5552.28, 122.681, 6150.31, 1.98733, 5930.16, -122.847
4799, 0.00000, 27.7691, -57.3095, 30.7549, -178.007, 29.6531, 57.1615, 5554.13, 122.688, 6151.45, 1.99013, 5931.34, -122.842
4799, 900.00000, 27.7784, -57.3023, 30.7607, -178.005, 29.6591, 57.1666, 5555.99, 122.695, 6152.6, 1.99292, 5932.52, -122.837
4799, 1800.00000, 27.7853, -57.2969, 30.765, -178.003, 29.6635, 57.1704, 5557.37, 122.701, 6153.45, 1.99497, 5933.39, -122.833
4799, 2700.00000, 27.7922, -57.2915, 30.7693, -178.001, 29.6679, 57.1741, 5558.75, 122.706, 6154.3, 1.99702, 5934.25, -122.829
4800, 0.00000, 27.7992, -57.2861, 30.7736, -177.999, 29.6722, 57.1778, 5560.13, 122.711, 6155.15, 1.99907, 5935.11, -122.825
