hour,t(sec),V1,VAngle1,V2,VAngle2,V3,VAngle3,I1,IAngle1,I2,IAngle2,I3,IAngle3
7992, 900.00000, 2935.93, -15.6871, 2998.13, -104.87, 34.807, 54.9971, 209.489, -13.1488, 154.002, -105.349, 30.3281, 88.5255
7992, 1800.00000, 2936.68, -15.6798, 2998.43, -104.861, 34.8047, 54.9928, 208.033, -12.9252, 152.843, -105.014, 30.1252, 88.5336
7992, 2700.00000, 2937.44, -15.6725, 2998.73, -104.852, 34.8024, 54.9884, 206.574, -12.6979, 151.688, -104.674, 29.9227, 88.5423
7993, 0.00000, 2938.2, -15.6652, 2999.03, -104.844, 34.8001, 54.9841, 205.119, -12.4674, 150.539, -104.329, 29.7201, 88.5513
7993, 900.00000, 2938.96, -15.6579, 2999.34, -104.835, 34.7977, 54.9798, 203.666, -12.2338, 149.394, -103.979, 29.5176, 88.5605
7993, 1800.00000, 2939.52, -15.6525, 2999.55, -104.828, 34.7961, 54.9767, 202.62, -12.0603, 148.572, -103.728, 29.3665, 88.5504
7993, 2700.00000, 2940.07, -15.6472, 2999.76, -104.822, 34.7944, 54.9735, 201.577, -11.8853, 147.754, -103.475, 29.2153, 88.5403
7994, 0.00000, 2940.63, -15.6418, 2999.97, -104.816, 34.7928, 54.9704, 200.535, -11.7084, 146.938, -103.219, 29.0642, 88.5301
7994, 900.00000, 2941.18, -15.6364, 3000.19, -104.809, 34.7911, 54.9673, 199.495, -11.5298, 146.125, -102.96, 28.9131, 88.5199
7994, 1800.00000, 2941.24, -15.6358, 3000.22, -104.808, 34.7909, 54.9669, 199.371, -11.5119, 146.002, -102.918, 28.9024, 88.5383
7994, 2700.00000, 2941.31, -15.6352, 3000.25, -104.808, 34.7906, 54.9664, 199.249, -11.4943, 145.88, -102.876, 28.8916, 88.5565
7995, 0.00000, 2941.37, -15.6346, 3000.29, -104.807, 34.7904, 54.966, 199.127, -11.4767, 145.759, -102.834, 28.8808, 88.5747
7995, 900.00000, 2941.43, -15.6341, 3000.32, -104.806, 34.7902, 54.9656, 199.005, -11.459, 145.637, -102.792, 28.8699, 88.5929
7995, 1800.00000, 2940.85, -15.6396, 3000.13, -104.813, 34.7917, 54.9686, 200.058, -11.6527, 146.358, -103.014, 29.0478, 88.6701
7995, 2700.00000, 2940.28, -15.6451, 2999.95, -104.819, 34.7932, 54.9715, 201.115, -11.8448, 147.081, -103.235, 29.2255, 88.7461
7996, 0.00000, 2939.71, -15.6507, 2999.76, -104.826, 34.7947, 54.9745, 202.174, -12.0349, 147.807, -103.453, 29.4033, 88.8212
7996, 900.00000, 2939.13, -15.6562, 2999.58, -104.832, 34.7962, 54.9775, 203.234, -12.2232, 148.534, -103.67, 29.5812, 88.8955
7996, 1800.00000, 2937.79, -15.6692, 2999.12, -104.847, 34.7998, 54.9845, 205.722, -12.6505, 150.318, -104.194, 29.9854, 89.0342
7996, 2700.00000, 2936.44, -15.6822, 2998.67, -104.863, 34.8034, 54.9915, 208.223, -13.0684, 152.114, -104.706, 30.3897, 89.1691
7997, 0.00000, 2935.09, -15.6952, 2998.22, -104.878, 34.807, 54.9986, 210.733, -13.4767, 153.92, -105.206, 30.7943, 89.3006
7997, 900.00000, 2933.75, -15.7082, 2997.76, -104.893, 34.8106, 55.0056, 213.251, -13.8757, 155.736, -105.696, 31.1992, 89.4287
7997, 1800.00000, 2931.53, -15.7296, 2997, -104.918, 34.8167, 55.0172, 217.464, -14.5164, 158.767, -106.491, 31.8677, 89.6134
7997, 2700.00000, 2929.3, -15.751, 2996.24, -104.943, 34.8228, 55.0288, 221.703, -15.1342, 161.824, -107.258, 32.5367, 89.7907
7998, 0.00000, 2945.49, -15.7665, 3013.96, -104.963, 35.0379, 55.0353, 226.339, -15.6135, 165.275, -107.815, 33.4819, 89.9422
7998, 900.00000, 2943.27, -15.7876, 3013.2, -104.988, 35.044, 55.0466, 230.602, -16.188, 168.378, -108.531, 34.1582, 90.1065
7998, 1800.00000, 2941.99, -15.7998, 3012.74, -105.002, 35.0475, 55.0533, 233.103, -16.5106, 170.193, -108.942, 34.5429, 90.1778
7998, 2700.00000, 2940.71, -15.812, 3012.29, -105.016, 35.0511, 55.06, 235.605, -16.8261, 172.014, -109.345, 34.9281, 90.248
7999, 0.00000, 2939.43, -15.8242, 3011.84, -105.031, 35.0547, 55.0666, 238.112, -17.1353, 173.843, -109.74, 35.3133, 90.3167
7999, 900.00000, 2939.32, -15.8033, 3011.05, -105.029, 35.0584, 55.0565, 234.694, -17.3549, 174.064, -110.144, 35.7429, 90.3419
7999, 1800.00000, 2942.26, -15.7263, 3010.6, -104.975, 35.0534, 55.0138, 222.449, -17.2503, 168.791, -110.346, 35.9208, 90.182
7999, 2700.00000, 2943.5, -15.6899, 3010.25, -104.952, 35.0521, 54.9942, 216.634, -17.2377, 166.67, -110.53, 36.0462, 90.0867
8000, 0.00000, 2944.73, -15.6535, 3009.89, -104.929, 35.0509, 54.9746, 210.835, -17.2299, 164.551, -110.72, 36.1703, 89.9956
8000, 900.00000, 2945.96, -15.6172, 3009.54, -104.905, 35.0497, 54.9551, 205.045, -17.2267, 162.435, -110.916, 36.2931, 89.9093
8000, 1800.00000, 2947.11, -15.5891, 3009.43, -104.885, 35.0476, 54.9392, 200.33, -17.1585, 160.162, -110.982, 36.3, 89.8477
8000, 2700.00000, 2948.27, -15.5611, 3009.31, -104.864, 35.0456, 54.9233, 195.62, -17.0897, 157.889, -111.05, 36.3064, 89.7891
8001, 0.00000, 2949.41, -15.5331, 3009.19, -104.843, 35.0435, 54.9074, 190.914, -17.0204, 155.616, -111.122, 36.3123, 89.7335
8001, 900.00000, 2950.37, -15.5088, 3009.04, -104.827, 35.0423, 54.8938, 186.704, -16.9569, 153.861, -111.186, 36.3186, 89.6835
8001, 1800.00000, 2950.74, -15.5005, 3009, -104.823, 35.0421, 54.8895, 185.153, -16.8934, 153.414, -111.159, 36.272, 89.6617
8001, 2700.00000, 2951.04, -15.4946, 3008.99, -104.819, 35.0419, 54.8865, 184.062, -16.8351, 153.051, -111.13, 36.2212, 89.6417
8002, 0.00000, 2951.25, -15.492, 3009.04, -104.816, 35.0414, 54.8852, 183.568, -16.7842, 152.69, -111.1, 36.1646, 89.6223
8002, 900.00000, 2951.45, -15.4896, 3009.09, -104.813, 35.0408, 54.8837, 183.073, -16.7334, 152.328, -111.071, 36.1079, 89.6024
8002, 1800.00000, 2951.88, -15.485, 3009.23, -104.808, 35.0395, 54.8808, 182.103, -16.614, 151.551, -110.948, 35.9889, 89.5917
8002, 2700.00000, 2952.32, -15.4803, 3009.38, -104.802, 35.0382, 54.8779, 181.132, -16.4933, 150.775, -110.823, 35.87, 89.5811
8003, 0.00000, 2952.71, -15.4765, 3009.52, -104.797, 35.0371, 54.8757, 180.337, -16.372, 150.18, -110.692, 35.753, 89.5675
8003, 900.00000, 2953.1, -15.4728, 3009.65, -104.793, 35.036, 54.8736, 179.573, -16.2498, 149.616, -110.559, 35.6362, 89.5532
8003, 1800.00000, 2953.45, -15.4694, 3009.78, -104.789, 35.0351, 54.8717, 178.877, -16.1375, 149.118, -110.439, 35.5294, 89.5402
8003, 2700.00000, 2953.79, -15.4661, 3009.9, -104.785, 35.0341, 54.8699, 178.182, -16.0244, 148.621, -110.319, 35.4225, 89.5271
8004, 0.00000, 2954.11, -15.4639, 3010.04, -104.782, 35.0331, 54.8686, 177.689, -15.9137, 148.146, -110.197, 35.3141, 89.514
8004, 900.00000, 2954.38, -15.4629, 3010.2, -104.778, 35.0321, 54.8681, 177.46, -15.8067, 147.746, -110.073, 35.2043, 89.5012
8004, 1800.00000, 2954.43, -15.4647, 3010.29, -104.778, 35.0317, 54.8693, 177.798, -15.7632, 147.783, -110.005, 35.1521, 89.5015
8004, 2700.00000, 2954.47, -15.4665, 3010.38, -104.778, 35.0314, 54.8706, 178.137, -15.72, 147.821, -109.937, 35.1, 89.5018
8005, 0.00000, 2954.51, -15.4683, 3010.48, -104.779, 35.0311, 54.8718, 178.476, -15.6769, 147.859, -109.869, 35.0478, 89.502
8005, 900.00000, 2954.55, -15.4701, 3010.57, -104.779, 35.0307, 54.8731, 178.815, -15.634, 147.897, -109.801, 34.9956, 89.5023
8005, 1800.00000, 2954.05, -15.4812, 3010.59, -104.785, 35.0315, 54.88, 181.025, -15.7152, 148.859, -109.864, 35.0287, 89.4845
8005, 2700.00000, 2953.25, -15.5003, 3010.68, -104.797, 35.0326, 54.8914, 184.71, -15.8268, 150.423, -109.921, 35.047, 89.4809
8006, 0.00000, 2952.42, -15.5199, 3010.75, -104.809, 35.0337, 54.9029, 188.399, -15.9365, 151.987, -109.978, 35.0648, 89.478
8006, 900.00000, 2951.52, -15.5408, 3010.82, -104.822, 35.0349, 54.9146, 192.089, -16.0455, 153.551, -110.035, 35.0816, 89.4746
8006, 1800.00000, 2949.67, -15.581, 3010.83, -104.851, 35.038, 54.9365, 198.87, -16.2826, 156.663, -110.172, 35.1752, 89.4897
8006, 2700.00000, 2947.81, -15.6213, 3010.84, -104.881, 35.0411, 54.9583, 205.666, -16.5097, 159.775, -110.305, 35.2678, 89.5089
8007, 0.00000, 2945.94, -15.6616, 3010.85, -104.91, 35.0443, 54.9802, 212.472, -16.7278, 162.888, -110.435, 35.3596, 89.5326
8007, 900.00000, 2944.07, -15.7019, 3010.86, -104.939, 35.0475, 55.002, 219.289, -16.9377, 166.002, -110.562, 35.4505, 89.5609
8007, 1800.00000, 2940.56, -15.7668, 3010.6, -104.987, 35.0541, 55.0378, 230.855, -17.4609, 171.285, -111.073, 35.8637, 89.6229
8007, 2700.00000, 2936.81, -15.8336, 3010.15, -105.042, 35.0624, 55.0735, 242.519, -17.9564, 177.682, -111.541, 36.2865, 89.7153
8008, 0.00000, 2933.48, -15.8807, 3009.18, -105.1, 35.0747, 55.1012, 250.059, -18.3755, 184.563, -111.979, 36.7459, 89.8107
8008, 900.00000, 2931.81, -15.8964, 3008.55, -105.119, 35.0797, 55.1101, 253.412, -18.7296, 187.139, -112.464, 37.2264, 89.8352
8008, 1800.00000, 2946.73, -15.9227, 3025.68, -105.152, 35.2989, 55.1229, 260.783, -19.333, 193.048, -113.288, 38.5249, 89.8526
8008, 2700.00000, 2943.25, -15.9554, 3024.33, -105.191, 35.3094, 55.1411, 267.776, -20.0052, 198.616, -114.225, 39.5187, 89.891
8009, 0.00000, 2939.76, -15.988, 3022.99, -105.23, 35.3198, 55.1593, 274.801, -20.6458, 204.225, -115.115, 40.5128, 89.9285
8009, 900.00000, 2936.28, -16.0207, 3021.64, -105.269, 35.3303, 55.1773, 281.849, -21.2565, 209.871, -115.961, 41.5077, 89.9654
8009, 1800.00000, 2935.76, -16.0255, 3021.44, -105.275, 35.3319, 55.18, 282.917, -21.3463, 210.704, -116.083, 41.6583, 89.9699
8009, 2700.00000, 2935.24, -16.0304, 3021.23, -105.281, 35.3334, 55.1828, 283.989, -21.4357, 211.538, -116.205, 41.8088, 89.9744
8010, 0.00000, 2934.71, -16.0353, 3021.03, -105.287, 35.335, 55.1855, 285.062, -21.5246, 212.373, -116.326, 41.9593, 89.9788
8010, 900.00000, 2934.19, -16.0401, 3020.83, -105.293, 35.3366, 55.1882, 286.135, -21.6128, 213.209, -116.445, 42.1099, 89.9833
8010, 1800.00000, 2934.6, -16.0364, 3020.98, -105.288, 35.3354, 55.1861, 285.329, -21.5455, 212.547, -116.354, 41.9932, 89.9734
8010, 2700.00000, 2935, -16.0325, 3021.14, -105.283, 35.3342, 55.1841, 284.516, -21.4772, 211.885, -116.262, 41.8769, 89.9635
8011, 0.00000, 2935.41, -16.0287, 3021.29, -105.279, 35.333, 55.182, 283.703, -21.4085, 211.224, -116.169, 41.7605, 89.9536
8011, 900.00000, 2935.82, -16.0249, 3021.45, -105.274, 35.3318, 55.1799, 282.891, -21.3395, 210.563, -116.076, 41.6442, 89.9437
8011, 1800.00000, 2936.71, -16.0166, 3021.78, -105.264, 35.3292, 55.1754, 281.103, -21.1862, 209.14, -115.872, 41.3859, 89.9216
8011, 2700.00000, 2937.6, -16.0082, 3022.12, -105.254, 35.3266, 55.1709, 279.316, -21.0312, 207.719, -115.664, 41.1277, 89.8994
8012, 0.00000, 2938.49, -15.9999, 3022.46, -105.244, 35.3239, 55.1664, 277.531, -20.8743, 206.3, -115.455, 40.8697, 89.8769
8012, 900.00000, 2939.38, -15.9916, 3022.79, -105.234, 35.3213, 55.1618, 275.748, -20.7156, 204.883, -115.242, 40.6116, 89.8542
8012, 1800.00000, 2941.1, -15.9755, 3023.44, -105.215, 35.3163, 55.153, 272.302, -20.402, 202.172, -114.827, 40.1084, 89.8041
8012, 2700.00000, 2942.82, -15.9593, 3024.08, -105.196, 35.3112, 55.1442, 268.855, -20.0804, 199.47, -114.401, 39.6056, 89.753
8013, 0.00000, 2944.54, -15.9431, 3024.73, -105.176, 35.3062, 55.1354, 265.415, -19.7509, 196.776, -113.965, 39.1031, 89.7009
8013, 900.00000, 2946.26, -15.9269, 3025.37, -105.157, 35.3012, 55.1265, 261.981, -19.4134, 194.093, -113.517, 38.6007, 89.6477
8013, 1800.00000, 2948.45, -15.9063, 3026.2, -105.132, 35.2948, 55.1152, 257.639, -18.976, 190.623, -112.919, 37.9724, 89.5937
8013, 2700.00000, 2950.65, -15.8857, 3027.03, -105.108, 35.2883, 55.1037, 253.305, -18.5243, 187.17, -112.301, 37.3446, 89.5384
8014, 0.00000, 2952.84, -15.865, 3027.86, -105.083, 35.2819, 55.0923, 248.982, -18.0577, 183.737, -111.66, 36.7171, 89.4818
8014, 900.00000, 2955.03, -15.8443, 3028.69, -105.058, 35.2755, 55.0808, 244.672, -17.5755, 180.323, -110.998, 36.09, 89.4237
8014, 1800.00000, 2957.35, -15.8224, 3029.56, -105.032, 35.2687, 55.0685, 240.101, -17.0463, 176.764, -110.272, 35.4279, 89.3691
8014, 2700.00000, 2959.66, -15.8005, 3030.43, -105.006, 35.2619, 55.0562, 235.561, -16.4991, 173.232, -109.519, 34.7654, 89.312
8015, 0.00000, 2961.98, -15.7787, 3031.3, -104.98, 35.2551, 55.0439, 231.039, -15.9315, 169.726, -108.736, 34.1032, 89.2534
8015, 900.00000, 2964.29, -15.7568, 3032.17, -104.954, 35.2484, 55.0315, 226.535, -15.3423, 166.249, -107.922, 33.4414, 89.1931
8015, 1800.00000, 2965.93, -15.7413, 3032.8, -104.935, 35.2435, 55.0227, 223.341, -14.9106, 163.8, -107.319, 32.9719, 89.1598
8015, 2700.00000, 2967.57, -15.7258, 3033.42, -104.917, 35.2387, 55.0139, 220.145, -14.4659, 161.366, -106.7, 32.5031, 89.1269
8016, 0.00000, 2969.21, -15.7102, 3034.04, -104.898, 35.2339, 55.0049, 216.961, -14.0087, 158.949, -106.063, 32.0345, 89.0934
