hour,t(sec),V1,VAngle1,V2,VAngle2,V3,VAngle3,I1,IAngle1,I2,IAngle2,I3,IAngle3
4392, 900.00000, 2391.77, -1.78373, 2449.25, -120.993, 2417.8, 118.905, 231.122, -5.42312, 186.425, -120.264, 195.527, 121.301
4392, 1800.00000, 2392.85, -1.76745, 2449.58, -120.984, 2418.54, 118.914, 228.318, -5.03045, 184.27, -119.829, 193.192, 121.749
4392, 2700.00000, 2393.96, -1.75063, 2449.9, -120.975, 2419.29, 118.923, 225.497, -4.62456, 182.123, -119.383, 190.857, 122.209
4393, 0.00000, 2395.04, -1.73433, 2450.24, -120.966, 2420.03, 118.932, 222.71, -4.21285, 179.989, -118.928, 188.545, 122.677
4393, 900.00000, 2396.03, -1.72102, 2450.73, -120.957, 2420.6, 118.95, 219.949, -3.79383, 177.86, -118.462, 185.364, 122.9
4393, 1800.00000, 2396.67, -1.711, 2450.92, -120.952, 2421.09, 118.956, 218.288, -3.52875, 176.657, -118.196, 183.885, 123.208
4393, 2700.00000, 2397.32, -1.70095, 2451.1, -120.947, 2421.57, 118.962, 216.628, -3.25929, 175.458, -117.926, 182.407, 123.522
4394, 0.00000, 2397.96, -1.6909, 2451.28, -120.942, 2422.06, 118.968, 214.972, -2.98595, 174.262, -117.652, 180.933, 123.841
4394, 900.00000, 2398.6, -1.68085, 2451.46, -120.937, 2422.54, 118.974, 213.32, -2.70864, 173.07, -117.375, 179.465, 124.165
4394, 1800.00000, 2398.82, -1.67741, 2451.53, -120.935, 2422.7, 118.976, 212.751, -2.61501, 172.625, -117.269, 179, 124.271
4394, 2700.00000, 2399.05, -1.67401, 2451.6, -120.933, 2422.85, 118.978, 212.186, -2.52142, 172.181, -117.163, 178.538, 124.377
4395, 0.00000, 2399.27, -1.6706, 2451.67, -120.931, 2423, 118.98, 211.622, -2.42737, 171.737, -117.056, 178.076, 124.484
4395, 900.00000, 2399.5, -1.6672, 2451.74, -120.929, 2423.16, 118.982, 211.058, -2.33284, 171.294, -116.949, 177.615, 124.591
4395, 1800.00000, 2399.42, -1.66836, 2451.71, -120.93, 2423.11, 118.981, 211.273, -2.36799, 171.443, -116.987, 177.771, 124.554
4395, 2700.00000, 2399.33, -1.66955, 2451.69, -120.931, 2423.06, 118.981, 211.491, -2.40346, 171.592, -117.024, 177.929, 124.517
4396, 0.00000, 2399.25, -1.67073, 2451.66, -120.932, 2423.01, 118.98, 211.709, -2.43886, 171.741, -117.062, 178.088, 124.48
4396, 900.00000, 2399.17, -1.67192, 2451.64, -120.933, 2422.97, 118.98, 211.928, -2.4742, 171.891, -117.1, 178.246, 124.443
4396, 1800.00000, 2398.77, -1.67754, 2451.51, -120.936, 2422.74, 118.977, 212.925, -2.63361, 172.658, -117.288, 178.967, 124.273
4396, 2700.00000, 2398.38, -1.68318, 2451.39, -120.94, 2422.52, 118.975, 213.926, -2.79203, 173.427, -117.476, 179.691, 124.104
4397, 0.00000, 2397.98, -1.68882, 2451.26, -120.944, 2422.3, 118.972, 214.929, -2.94906, 174.198, -117.661, 180.417, 123.937
4397, 900.00000, 2397.59, -1.69446, 2451.13, -120.947, 2422.07, 118.969, 215.934, -3.10473, 174.971, -117.845, 181.144, 123.77
4397, 1800.00000, 2396.72, -1.70673, 2450.85, -120.955, 2421.59, 118.964, 218.133, -3.43933, 176.674, -118.244, 182.726, 123.413
4397, 2700.00000, 2395.85, -1.71904, 2450.57, -120.964, 2421.1, 118.958, 220.344, -3.76827, 178.385, -118.636, 184.316, 123.062
4398, 0.00000, 2394.99, -1.73134, 2450.29, -120.972, 2420.61, 118.953, 222.561, -4.09111, 180.104, -119.021, 185.912, 122.716
4398, 900.00000, 2394.12, -1.74364, 2450.01, -120.98, 2420.13, 118.947, 224.784, -4.40801, 181.83, -119.399, 187.515, 122.376
4398, 1800.00000, 2392.88, -1.76099, 2449.6, -120.992, 2419.45, 118.94, 227.937, -4.84386, 184.325, -119.93, 189.76, 121.909
4398, 2700.00000, 2393.96, -1.68812, 2448.14, -120.985, 2419.83, 118.932, 217.463, -5.1774, 182.39, -120.393, 187.564, 121.584
4399, 0.00000, 2393.74, -1.66654, 2447.48, -120.984, 2419.67, 118.932, 214.242, -5.60798, 181.767, -120.882, 186.644, 121.204
4399, 900.00000, 2393.37, -1.65047, 2446.73, -120.988, 2419.4, 118.927, 212.233, -6.04007, 182.313, -121.38, 186.915, 120.798
4399, 1800.00000, 2393.48, -1.61958, 2446.19, -120.979, 2419.32, 118.932, 209.606, -6.4655, 182.514, -121.819, 187.17, 120.393
4399, 2700.00000, 2393.31, -1.59779, 2445.49, -120.978, 2419.06, 118.928, 206.99, -6.91594, 182.724, -122.268, 187.433, 119.978
4400, 0.00000, 2393.15, -1.57601, 2444.79, -120.977, 2418.8, 118.923, 204.391, -7.37973, 182.944, -122.715, 187.705, 119.563
4400, 900.00000, 2392.98, -1.55424, 2444.1, -120.977, 2418.54, 118.919, 201.809, -7.85707, 183.174, -123.162, 187.985, 119.15
4400, 1800.00000, 2392.53, -1.54762, 2443.68, -120.977, 2418.16, 118.916, 201.591, -8.26805, 183.999, -123.542, 188.947, 118.77
4400, 2700.00000, 2392.08, -1.54101, 2443.26, -120.978, 2417.77, 118.914, 201.383, -8.68014, 184.83, -123.919, 189.917, 118.394
4401, 0.00000, 2391.63, -1.53439, 2442.84, -120.978, 2417.39, 118.911, 201.186, -9.09323, 185.668, -124.292, 190.894, 118.022
4401, 900.00000, 2391.18, -1.52777, 2442.42, -120.979, 2417, 118.908, 200.998, -9.50728, 186.512, -124.663, 191.879, 117.653
4401, 1800.00000, 2390.61, -1.52891, 2442.08, -120.982, 2416.54, 118.903, 201.803, -9.85504, 187.666, -124.969, 193.278, 117.322
4401, 2700.00000, 2390.02, -1.53044, 2441.76, -120.985, 2416.08, 118.899, 202.62, -10.2015, 188.825, -125.272, 194.687, 116.996
4402, 0.00000, 2389.46, -1.53154, 2441.42, -120.988, 2415.63, 118.894, 203.435, -10.5429, 189.985, -125.57, 196.096, 116.674
4402, 900.00000, 2388.89, -1.53267, 2441.09, -120.991, 2415.17, 118.889, 204.26, -10.8826, 191.152, -125.866, 197.513, 116.357
4402, 1800.00000, 2388.48, -1.53485, 2440.86, -120.993, 2414.79, 118.884, 204.998, -11.1161, 192.055, -126.056, 198.73, 116.129
4402, 2700.00000, 2388.06, -1.53703, 2440.64, -120.995, 2414.42, 118.88, 205.738, -11.3479, 192.959, -126.245, 199.949, 115.903
4403, 0.00000, 2387.65, -1.5392, 2440.41, -120.997, 2414.04, 118.875, 206.48, -11.578, 193.865, -126.432, 201.171, 115.68
4403, 900.00000, 2387.23, -1.54137, 2440.19, -121, 2413.66, 118.87, 207.226, -11.8064, 194.772, -126.617, 202.396, 115.46
4403, 1800.00000, 2386.64, -1.55045, 2440.02, -121.004, 2413.16, 118.864, 208.994, -12.0115, 196.07, -126.788, 204.126, 115.232
4403, 2700.00000, 2386.05, -1.55954, 2439.85, -121.008, 2412.67, 118.858, 210.765, -12.2136, 197.369, -126.957, 205.862, 115.008
4404, 0.00000, 2385.46, -1.56863, 2439.68, -121.012, 2412.17, 118.852, 212.539, -12.4126, 198.669, -127.124, 207.6, 114.788
4404, 900.00000, 2384.87, -1.57771, 2439.51, -121.015, 2411.67, 118.845, 214.315, -12.6086, 199.971, -127.289, 209.34, 114.571
4404, 1800.00000, 2383.9, -1.59434, 2439.23, -121.024, 2410.91, 118.835, 217.28, -12.8765, 202.143, -127.54, 211.966, 114.267
4404, 2700.00000, 2382.92, -1.61082, 2438.95, -121.032, 2410.18, 118.825, 220.24, -13.1361, 204.314, -127.786, 214.583, 113.972
4405, 0.00000, 2381.94, -1.62734, 2438.67, -121.041, 2409.44, 118.814, 223.21, -13.3908, 206.491, -128.027, 217.214, 113.683
4405, 900.00000, 2380.96, -1.64387, 2438.39, -121.049, 2408.7, 118.804, 226.185, -13.6395, 208.672, -128.264, 219.85, 113.401
4405, 1800.00000, 2395.22, -1.65276, 2453.36, -121.051, 2423.21, 118.803, 228.795, -13.6573, 210.272, -128.267, 221.914, 113.35
4405, 2700.00000, 2394.34, -1.66729, 2453.15, -121.057, 2422.54, 118.795, 231.269, -13.8943, 211.913, -128.488, 224, 113.088
4406, 0.00000, 2393.45, -1.68186, 2452.93, -121.063, 2421.87, 118.787, 233.753, -14.128, 213.558, -128.707, 226.095, 112.831
4406, 900.00000, 2392.57, -1.69643, 2452.72, -121.069, 2421.2, 118.779, 236.241, -14.3573, 215.207, -128.922, 228.195, 112.578
4406, 1800.00000, 2391.62, -1.71705, 2452.59, -121.078, 2420.53, 118.771, 239.474, -14.4974, 217.067, -129.08, 230.437, 112.383
4406, 2700.00000, 2390.67, -1.73768, 2452.47, -121.086, 2419.86, 118.763, 242.711, -14.6349, 218.928, -129.234, 232.683, 112.192
4407, 0.00000, 2389.72, -1.75831, 2452.35, -121.094, 2419.2, 118.754, 245.951, -14.7697, 220.79, -129.387, 234.932, 112.003
4407, 900.00000, 2388.77, -1.77895, 2452.23, -121.102, 2418.53, 118.746, 249.193, -14.902, 222.654, -129.537, 237.183, 111.818
4407, 1800.00000, 2387.94, -1.7993, 2452.15, -121.11, 2417.97, 118.738, 252.464, -14.9628, 224.56, -129.632, 239.344, 111.696
4407, 2700.00000, 2387.1, -1.81965, 2452.08, -121.119, 2417.41, 118.731, 255.737, -15.0228, 226.466, -129.726, 241.506, 111.575
4408, 0.00000, 2386.26, -1.84001, 2452, -121.127, 2416.85, 118.723, 259.012, -15.0822, 228.373, -129.818, 243.67, 111.457
4408, 900.00000, 2385.41, -1.86037, 2451.93, -121.135, 2416.29, 118.716, 262.29, -15.1411, 230.281, -129.91, 245.835, 111.34
4408, 1800.00000, 2384.86, -1.87936, 2452.04, -121.141, 2415.99, 118.712, 265.024, -15.0855, 231.432, -129.9, 247.078, 111.332
4408, 2700.00000, 2384.31, -1.89836, 2452.16, -121.147, 2415.68, 118.708, 267.758, -15.0314, 232.582, -129.89, 248.319, 111.324
4409, 0.00000, 2383.76, -1.91736, 2452.27, -121.153, 2415.37, 118.705, 270.494, -14.9792, 233.732, -129.881, 249.56, 111.316
4409, 900.00000, 2383.21, -1.93637, 2452.38, -121.158, 2415.07, 118.701, 273.234, -14.9287, 234.882, -129.871, 250.801, 111.308
4409, 1800.00000, 2382.74, -1.96377, 2452.79, -121.165, 2414.96, 118.7, 276.705, -14.7025, 235.669, -129.726, 251.426, 111.443
4409, 2700.00000, 2382.27, -1.99121, 2453.2, -121.172, 2414.85, 118.7, 280.186, -14.4834, 236.454, -129.582, 252.051, 111.579
4410, 0.00000, 2381.77, -2.03114, 2453.82, -121.175, 2414.59, 118.701, 284.914, -14.1142, 237.166, -129.435, 252.677, 111.718
4410, 900.00000, 2381.31, -2.05845, 2454.23, -121.182, 2414.48, 118.701, 288.4, -13.91, 237.961, -129.294, 253.302, 111.852
4410, 1800.00000, 2381.22, -2.08067, 2454.76, -121.186, 2414.67, 118.704, 291.015, -13.6099, 238.103, -129.053, 253.098, 112.095
4410, 2700.00000, 2380.51, -2.12243, 2454.94, -121.207, 2414.44, 118.686, 296.237, -13.2743, 240.782, -128.788, 255.471, 112.347
4411, 0.00000, 2379.02, -2.19944, 2456.44, -121.216, 2414.11, 118.699, 306.944, -12.8644, 242.361, -128.49, 256.766, 112.626
4411, 900.00000, 2379.89, -2.18636, 2456.69, -121.209, 2414.74, 118.707, 304.533, -12.6663, 240.597, -128.291, 254.616, 112.847
4411, 1800.00000, 2380.17, -2.18149, 2456.74, -121.208, 2415.04, 118.711, 303.716, -12.5882, 240.16, -128.246, 253.667, 112.939
4411, 2700.00000, 2380.44, -2.1767, 2456.78, -121.207, 2415.33, 118.715, 302.911, -12.5107, 239.724, -128.201, 252.724, 113.031
4412, 0.00000, 2380.71, -2.17191, 2456.83, -121.206, 2415.63, 118.719, 302.105, -12.4328, 239.289, -128.155, 251.78, 113.124
4412, 900.00000, 2380.98, -2.16712, 2456.88, -121.205, 2415.93, 118.722, 301.3, -12.3546, 238.854, -128.11, 250.838, 113.217
4412, 1800.00000, 2381.84, -2.1545, 2457.13, -121.198, 2416.52, 118.73, 298.964, -12.1576, 237.127, -127.908, 248.813, 113.437
4412, 2700.00000, 2382.69, -2.14181, 2457.37, -121.191, 2417.11, 118.737, 296.621, -11.9569, 235.403, -127.702, 246.789, 113.66
4413, 0.00000, 2383.55, -2.12911, 2457.62, -121.184, 2417.71, 118.744, 294.282, -11.7534, 233.68, -127.494, 244.768, 113.887
4413, 900.00000, 2384.4, -2.11642, 2457.87, -121.178, 2418.3, 118.751, 291.945, -11.547, 231.961, -127.283, 242.751, 114.117
4413, 1800.00000, 2386.35, -2.08838, 2458.46, -121.161, 2419.53, 118.765, 286.711, -11.0861, 227.936, -126.77, 238.521, 114.623
4413, 2700.00000, 2388.28, -2.06041, 2459.05, -121.144, 2420.76, 118.78, 281.506, -10.611, 223.931, -126.239, 234.315, 115.145
4414, 0.00000, 2390.22, -2.03242, 2459.64, -121.128, 2421.99, 118.794, 276.318, -10.12, 219.944, -125.69, 230.128, 115.685
4414, 900.00000, 2392.15, -2.00442, 2460.22, -121.111, 2423.22, 118.809, 271.148, -9.61208, 215.976, -125.123, 225.961, 116.243
4414, 1800.00000, 2394.21, -1.97434, 2460.83, -121.094, 2424.53, 118.824, 265.717, -9.05472, 211.812, -124.504, 221.551, 116.857
4414, 2700.00000, 2396.24, -1.94469, 2461.45, -121.077, 2425.84, 118.84, 260.317, -8.47774, 207.67, -123.861, 217.168, 117.495
4415, 0.00000, 2398.21, -1.90378, 2461.9, -121.063, 2427.31, 118.854, 253.879, -8.05863, 203.614, -123.2, 212.806, 118.155
4415, 900.00000, 2400.42, -1.87441, 2462.38, -121.036, 2428.52, 118.866, 248.543, -7.44669, 198.668, -122.753, 208.518, 118.838
4415, 1800.00000, 2401.92, -1.85225, 2462.84, -121.024, 2429.51, 118.878, 244.597, -6.96935, 195.649, -122.225, 205.273, 119.373
4415, 2700.00000, 2403.44, -1.82937, 2463.28, -121.011, 2430.53, 118.89, 240.631, -6.47297, 192.64, -121.681, 202.029, 119.929
4416, 0.00000, 2404.94, -1.80722, 2463.74, -120.999, 2431.53, 118.902, 236.717, -5.9661, 189.65, -121.121, 198.823, 120.497
