hour,t(sec),V1,VAngle1,V2,VAngle2,V3,VAngle3,I1,IAngle1,I2,IAngle2,I3,IAngle3
4776, 900.00000, 2641.52, -0.00487493, 2641.94, -120.001, 2641.95, 119.999, 3029.13, -62.7538, 307.939, -140.315, 343.945, 111.954
4776, 1800.00000, 2641.52, -0.00486588, 2641.94, -120.001, 2641.95, 119.999, 3026.72, -62.7849, 304.825, -140.098, 340.281, 112.131
4776, 2700.00000, 2641.52, -0.00485681, 2641.94, -120.001, 2641.95, 119.999, 3024.3, -62.8161, 301.705, -139.875, 336.61, 112.311
4777, 0.00000, 2641.52, -0.00484773, 2641.94, -120.001, 2641.95, 119.999, 3021.88, -62.8474, 298.589, -139.648, 332.941, 112.496
4777, 900.00000, 2641.52, -0.00483865, 2641.94, -120.001, 2641.95, 119.999, 3019.46, -62.8787, 295.476, -139.416, 329.275, 112.684
4777, 1800.00000, 2641.52, -0.00483175, 2641.94, -120.001, 2641.95, 119.999, 3017.68, -62.9031, 293.076, -139.233, 326.655, 112.824
4777, 2700.00000, 2641.52, -0.00482485, 2641.94, -120.001, 2641.95, 119.999, 3015.9, -62.9275, 290.68, -139.046, 324.037, 112.966
4778, 0.00000, 2641.52, -0.00481795, 2641.94, -120.001, 2641.95, 119.999, 3014.12, -62.952, 288.286, -138.857, 321.421, 113.111
4778, 900.00000, 2641.52, -0.00481104, 2641.94, -120.001, 2641.95, 119.999, 3012.33, -62.9765, 285.894, -138.665, 318.806, 113.257
4778, 1800.00000, 2641.52, -0.00480578, 2641.94, -120.001, 2641.95, 119.999, 3010.95, -62.9949, 284.108, -138.52, 316.72, 113.373
4778, 2700.00000, 2641.52, -0.00480052, 2641.94, -120.001, 2641.95, 119.999, 3009.56, -63.0133, 282.325, -138.373, 314.636, 113.491
4779, 0.00000, 2641.52, -0.00479526, 2641.94, -120.001, 2641.95, 119.999, 3008.18, -63.0317, 280.543, -138.224, 312.552, 113.61
4779, 900.00000, 2641.52, -0.00478999, 2641.94, -120.001, 2641.95, 119.999, 3006.79, -63.0502, 278.762, -138.073, 310.469, 113.73
4779, 1800.00000, 2641.52, -0.00478855, 2641.94, -120.001, 2641.95, 119.999, 3006.41, -63.0553, 278.257, -138.03, 309.906, 113.764
4779, 2700.00000, 2641.52, -0.0047871, 2641.94, -120.001, 2641.95, 119.999, 3006.03, -63.0604, 277.754, -137.987, 309.344, 113.797
4780, 0.00000, 2641.52, -0.00478565, 2641.94, -120.001, 2641.95, 119.999, 3005.65, -63.0655, 277.251, -137.944, 308.782, 113.83
4780, 900.00000, 2641.52, -0.00478421, 2641.94, -120.001, 2641.95, 119.999, 3005.28, -63.0705, 276.748, -137.9, 308.22, 113.864
4780, 1800.00000, 2641.52, -0.00478438, 2641.94, -120.001, 2641.95, 119.999, 3005.29, -63.0696, 276.807, -137.906, 308.195, 113.864
4780, 2700.00000, 2641.52, -0.00478456, 2641.94, -120.001, 2641.95, 119.999, 3005.3, -63.0687, 276.867, -137.911, 308.172, 113.864
4781, 0.00000, 2641.52, -0.00478473, 2641.94, -120.001, 2641.95, 119.999, 3005.32, -63.0678, 276.927, -137.917, 308.148, 113.864
4781, 900.00000, 2641.52, -0.00478491, 2641.94, -120.001, 2641.95, 119.999, 3005.33, -63.0668, 276.986, -137.923, 308.124, 113.863
4781, 1800.00000, 2641.52, -0.00478357, 2641.94, -120.001, 2641.95, 119.999, 3004.96, -63.0713, 276.553, -137.886, 307.528, 113.897
4781, 2700.00000, 2641.52, -0.00478224, 2641.94, -120.001, 2641.95, 119.999, 3004.58, -63.0758, 276.118, -137.849, 306.932, 113.931
4782, 0.00000, 2641.52, -0.00478091, 2641.94, -120.001, 2641.95, 119.999, 3004.21, -63.0802, 275.684, -137.812, 306.336, 113.965
4782, 900.00000, 2641.52, -0.00477958, 2641.94, -120.001, 2641.95, 119.999, 3003.84, -63.0847, 275.25, -137.774, 305.739, 113.999
4782, 1800.00000, 2641.52, -0.00478606, 2641.94, -120.001, 2641.95, 119.999, 3005.54, -63.0619, 277.446, -137.965, 308.294, 113.847
4782, 2700.00000, 2641.52, -0.00478462, 2641.94, -120.001, 2641.95, 119.999, 3006.27, -63.0776, 276.908, -138.258, 308.158, 113.614
4783, 0.00000, 2641.52, -0.00477859, 2641.94, -120.001, 2641.95, 119.999, 3006.44, -63.1156, 273.586, -138.512, 305.453, 113.227
4783, 900.00000, 2641.52, -0.00477003, 2641.94, -120.001, 2641.95, 119.999, 3006.25, -63.1655, 270.301, -138.883, 302.671, 112.893
4783, 1800.00000, 2641.52, -0.00477048, 2641.94, -120.001, 2641.95, 119.999, 3007.77, -63.1774, 269.915, -139.275, 303.209, 112.507
4783, 2700.00000, 2641.52, -0.00477092, 2641.94, -120.001, 2641.95, 119.999, 3009.3, -63.1893, 269.546, -139.668, 303.763, 112.123
4784, 0.00000, 2641.52, -0.00477137, 2641.94, -120.001, 2641.95, 119.999, 3010.82, -63.2012, 269.191, -140.062, 304.332, 111.74
4784, 900.00000, 2641.52, -0.00477182, 2641.94, -120.001, 2641.95, 119.999, 3012.34, -63.213, 268.85, -140.458, 304.915, 111.359
4784, 1800.00000, 2641.52, -0.00477731, 2641.94, -120.001, 2641.95, 119.999, 3014.63, -63.2019, 270.425, -140.825, 307.457, 111.033
4784, 2700.00000, 2641.52, -0.00478279, 2641.94, -120.001, 2641.95, 119.999, 3016.92, -63.1907, 272.012, -141.187, 310.008, 110.711
4785, 0.00000, 2641.52, -0.00478827, 2641.94, -120.001, 2641.95, 119.999, 3019.21, -63.1795, 273.611, -141.546, 312.569, 110.395
4785, 900.00000, 2641.52, -0.00479375, 2641.94, -120.001, 2641.95, 119.999, 3021.5, -63.1684, 275.221, -141.9, 315.139, 110.084
4785, 1800.00000, 2641.51, -0.00480227, 2641.94, -120.001, 2641.95, 119.999, 3024.13, -63.1423, 278.066, -142.205, 318.75, 109.836
4785, 2700.00000, 2641.51, -0.00481079, 2641.94, -120.001, 2641.95, 119.999, 3026.75, -63.1162, 280.92, -142.504, 322.366, 109.593
4786, 0.00000, 2641.51, -0.00481931, 2641.94, -120.001, 2641.94, 119.999, 3029.38, -63.0902, 283.78, -142.797, 325.986, 109.355
4786, 900.00000, 2641.51, -0.00482782, 2641.94, -120.001, 2641.94, 119.999, 3032.01, -63.0643, 286.647, -143.084, 329.611, 109.122
4786, 1800.00000, 2641.51, -0.00483644, 2641.94, -120.001, 2641.94, 119.999, 3034.59, -63.0373, 289.578, -143.343, 333.337, 108.917
4786, 2700.00000, 2641.51, -0.00484506, 2641.94, -120.001, 2641.94, 119.999, 3037.18, -63.0104, 292.514, -143.596, 337.066, 108.715
4787, 0.00000, 2641.51, -0.00485367, 2641.94, -120.001, 2641.94, 119.999, 3039.76, -62.9835, 295.454, -143.845, 340.799, 108.518
4787, 900.00000, 2641.51, -0.00486227, 2641.93, -120.001, 2641.94, 119.999, 3042.34, -62.9567, 298.4, -144.089, 344.534, 108.325
4787, 1800.00000, 2641.51, -0.00487193, 2641.93, -120.001, 2641.94, 119.999, 3044.99, -62.9244, 301.701, -144.28, 348.691, 108.172
4787, 2700.00000, 2641.51, -0.00488158, 2641.93, -120.001, 2641.94, 119.999, 3047.64, -62.8921, 305.005, -144.468, 352.85, 108.022
4788, 0.00000, 2641.51, -0.00489122, 2641.93, -120.001, 2641.94, 119.999, 3050.29, -62.8598, 308.311, -144.652, 357.009, 107.875
4788, 900.00000, 2641.51, -0.00490086, 2641.93, -120.001, 2641.94, 119.999, 3052.94, -62.8277, 311.62, -144.832, 361.17, 107.732
4788, 1800.00000, 2641.51, -0.00491269, 2641.93, -120.001, 2641.94, 119.999, 3056.01, -62.7866, 315.765, -145.014, 366.136, 107.594
4788, 2700.00000, 2641.51, -0.00492451, 2641.93, -120.001, 2641.94, 119.999, 3059.09, -62.7457, 319.913, -145.192, 371.108, 107.459
4789, 0.00000, 2641.51, -0.00493633, 2641.93, -120.001, 2641.94, 119.999, 3062.17, -62.7049, 324.062, -145.366, 376.082, 107.327
4789, 900.00000, 2641.51, -0.00494813, 2641.93, -120.001, 2641.94, 119.999, 3065.25, -62.6642, 328.213, -145.535, 381.056, 107.199
4789, 1800.00000, 2641.51, -0.00495709, 2641.93, -120.001, 2641.94, 119.999, 3067.62, -62.6337, 331.41, -145.67, 384.863, 107.097
4789, 2700.00000, 2641.51, -0.00496604, 2641.93, -120.001, 2641.94, 119.999, 3069.99, -62.6032, 334.606, -145.802, 388.669, 106.998
4790, 0.00000, 2641.51, -0.00497499, 2641.93, -120.001, 2641.94, 119.999, 3072.36, -62.5729, 337.804, -145.932, 392.475, 106.9
4790, 900.00000, 2641.51, -0.00498393, 2641.93, -120.001, 2641.94, 119.999, 3074.72, -62.5426, 341.002, -146.059, 396.281, 106.803
4790, 1800.00000, 2641.51, -0.00499282, 2641.93, -120.001, 2641.94, 119.999, 3076.82, -62.51, 344.328, -146.147, 399.75, 106.749
4790, 2700.00000, 2641.51, -0.00500169, 2641.93, -120.001, 2641.94, 119.999, 3078.91, -62.4775, 347.653, -146.233, 403.219, 106.696
4791, 0.00000, 2641.51, -0.00501056, 2641.93, -120.001, 2641.94, 119.999, 3081.01, -62.4451, 350.978, -146.317, 406.686, 106.643
4791, 900.00000, 2641.51, -0.00501943, 2641.93, -120.001, 2641.94, 119.999, 3083.1, -62.4128, 354.303, -146.4, 410.153, 106.59
4791, 1800.00000, 2641.51, -0.00502683, 2641.93, -120.001, 2641.94, 119.999, 3084.65, -62.3839, 357.158, -146.436, 412.867, 106.581
4791, 2700.00000, 2641.51, -0.00503423, 2641.93, -120.001, 2641.94, 119.999, 3086.2, -62.355, 360.013, -146.472, 415.58, 106.571
4792, 0.00000, 2641.51, -0.00504163, 2641.93, -120.001, 2641.94, 119.999, 3087.76, -62.3262, 362.866, -146.507, 418.292, 106.561
4792, 900.00000, 2641.51, -0.00504902, 2641.93, -120.001, 2641.94, 119.999, 3089.31, -62.2975, 365.718, -146.542, 421.004, 106.551
4792, 1800.00000, 2641.51, -0.00505725, 2641.93, -120.001, 2641.94, 119.999, 3090.69, -62.2621, 368.815, -146.492, 423.938, 106.609
4792, 2700.00000, 2641.51, -0.00506548, 2641.93, -120.001, 2641.94, 119.999, 3092.06, -62.2267, 371.911, -146.442, 426.872, 106.665
4793, 0.00000, 2641.51, -0.0050737, 2641.93, -120.001, 2641.94, 119.999, 3093.45, -62.1914, 375.007, -146.394, 429.806, 106.721
4793, 900.00000, 2641.51, -0.00508192, 2641.93, -120.001, 2641.94, 119.999, 3094.83, -62.1562, 378.101, -146.347, 432.741, 106.775
4793, 1800.00000, 2641.51, -0.00508776, 2641.93, -120.001, 2641.94, 119.999, 3095.27, -62.1259, 380.415, -146.202, 434.72, 106.921
4793, 2700.00000, 2641.51, -0.00509359, 2641.93, -120.001, 2641.94, 119.998, 3095.7, -62.0957, 382.73, -146.059, 436.701, 107.066
4794, 0.00000, 2641.51, -0.00509942, 2641.93, -120.001, 2641.94, 119.998, 3096.15, -62.0654, 385.047, -145.918, 438.686, 107.209
4794, 900.00000, 2641.51, -0.00510525, 2641.93, -120.001, 2641.94, 119.998, 3096.59, -62.0352, 387.366, -145.779, 440.674, 107.35
4794, 1800.00000, 2641.51, -0.00511405, 2641.93, -120.001, 2641.94, 119.998, 3096.87, -61.9859, 390.456, -145.452, 443.473, 107.62
4794, 2700.00000, 2641.51, -0.0051174, 2641.93, -120.001, 2641.94, 119.998, 3096.42, -61.9616, 392.14, -145.243, 444.773, 107.862
4795, 0.00000, 2641.51, -0.00512333, 2641.93, -120.001, 2641.94, 119.998, 3096.26, -61.9249, 394.402, -144.958, 446.733, 108.107
4795, 900.00000, 2641.51, -0.00511652, 2641.93, -120.001, 2641.94, 119.998, 3094.46, -61.9476, 391.919, -144.852, 444.065, 108.19
4795, 1800.00000, 2641.51, -0.00511507, 2641.93, -120.001, 2641.94, 119.998, 3094.11, -61.9529, 391.338, -144.826, 443.632, 108.206
4795, 2700.00000, 2641.51, -0.00511361, 2641.93, -120.001, 2641.94, 119.998, 3093.77, -61.9581, 390.758, -144.8, 443.201, 108.222
4796, 0.00000, 2641.51, -0.00511216, 2641.93, -120.001, 2641.94, 119.998, 3093.43, -61.9634, 390.179, -144.774, 442.769, 108.238
4796, 900.00000, 2641.51, -0.0051107, 2641.93, -120.001, 2641.94, 119.998, 3093.09, -61.9686, 389.6, -144.748, 442.338, 108.254
4796, 1800.00000, 2641.51, -0.00510137, 2641.93, -120.001, 2641.94, 119.998, 3090.56, -61.9993, 386.261, -144.603, 438.517, 108.372
4796, 2700.00000, 2641.51, -0.00509203, 2641.93, -120.001, 2641.94, 119.998, 3088.04, -62.0301, 382.92, -144.455, 434.695, 108.492
4797, 0.00000, 2641.51, -0.00508268, 2641.93, -120.001, 2641.94, 119.999, 3085.52, -62.0609, 379.581, -144.304, 430.873, 108.613
4797, 900.00000, 2641.51, -0.00507333, 2641.93, -120.001, 2641.94, 119.999, 3083, -62.0918, 376.243, -144.151, 427.052, 108.737
4797, 1800.00000, 2641.51, -0.0050545, 2641.93, -120.001, 2641.94, 119.999, 3077.88, -62.1537, 369.622, -143.841, 419.191, 108.994
4797, 2700.00000, 2641.51, -0.00503564, 2641.93, -120.001, 2641.94, 119.999, 3072.75, -62.216, 363.005, -143.519, 411.332, 109.26
4798, 0.00000, 2641.51, -0.00501676, 2641.93, -120.001, 2641.94, 119.999, 3067.63, -62.2786, 356.395, -143.186, 403.476, 109.534
4798, 900.00000, 2641.51, -0.00499785, 2641.93, -120.001, 2641.94, 119.999, 3062.51, -62.3415, 349.794, -142.841, 395.626, 109.818
4798, 1800.00000, 2641.51, -0.00497936, 2641.93, -120.001, 2641.94, 119.999, 3057.53, -62.4034, 343.338, -142.49, 388.026, 110.104
4798, 2700.00000, 2641.51, -0.00496085, 2641.93, -120.001, 2641.94, 119.999, 3052.56, -62.4657, 336.892, -142.127, 380.432, 110.4
4799, 0.00000, 2641.51, -0.00494232, 2641.93, -120.001, 2641.94, 119.999, 3047.58, -62.5282, 330.456, -141.749, 372.844, 110.707
4799, 900.00000, 2641.51, -0.00492377, 2641.94, -120.001, 2641.95, 119.999, 3042.61, -62.5912, 324.031, -141.357, 365.261, 111.025
4799, 1800.00000, 2641.51, -0.00490986, 2641.94, -120.001, 2641.95, 119.999, 3038.93, -62.6389, 319.196, -141.05, 359.735, 111.267
4799, 2700.00000, 2641.51, -0.00489594, 2641.94, -120.001, 2641.95, 119.999, 3035.26, -62.6868, 314.37, -140.735, 354.213, 111.516
4800, 0.00000, 2641.52, -0.00488201, 2641.94, -120.001, 2641.95, 119.999, 3031.58, -62.7349, 309.551, -140.409, 348.696, 111.772
