hour,t(sec),V1,VAngle1,V2,VAngle2,V3,VAngle3,I1,IAngle1,I2,IAngle2,I3,IAngle3
0, 900.00000, 2367.33, -2.04927, 2428.52, -121.153, 2391.32, 118.755, 7.41493E-8, -2.03777, 1.45733E-8, -120.88, 1.74607E-8, 118.797
0, 1800.00000, 2368.09, -2.03762, 2428.79, -121.146, 2391.81, 118.76, 7.41826E-8, -2.05865, 1.45842E-8, -121.105, 1.74914E-8, 118.633
0, 2700.00000, 2368.85, -2.02591, 2429.05, -121.139, 2392.31, 118.766, 7.4215E-8, -2.05002, 1.45399E-8, -121.009, 1.74935E-8, 118.82
1, 0.00000, 2369.61, -2.0142, 2429.31, -121.132, 2392.8, 118.772, 7.42412E-8, -2.06545, 1.45336E-8, -120.982, 1.75167E-8, 118.71
1, 900.00000, 2370.4, -2.00191, 2429.56, -121.125, 2393.3, 118.777, 7.42653E-8, -1.99527, 1.45573E-8, -120.943, 1.75178E-8, 118.939
1, 1800.00000, 2370.78, -1.99571, 2429.69, -121.122, 2393.6, 118.781, 7.42704E-8, -1.96775, 1.46017E-8, -121.08, 1.74974E-8, 118.867
1, 2700.00000, 2371.17, -1.98945, 2429.82, -121.119, 2393.9, 118.784, 7.42964E-8, -1.99022, 1.45583E-8, -120.949, 1.75262E-8, 119.087
2, 0.00000, 2371.55, -1.98318, 2429.95, -121.115, 2394.2, 118.788, 7.43036E-8, -1.95705, 1.45837E-8, -121.06, 1.75337E-8, 118.91
2, 900.00000, 2371.93, -1.97692, 2430.09, -121.112, 2394.5, 118.792, 7.43405E-8, -1.94836, 1.45779E-8, -120.994, 1.75196E-8, 118.949
2, 1800.00000, 2372.08, -1.97423, 2430.13, -121.111, 2394.63, 118.793, 7.43168E-8, -1.94758, 1.45516E-8, -120.794, 1.752E-8, 118.854
2, 2700.00000, 2372.24, -1.97156, 2430.17, -121.11, 2394.76, 118.795, 7.43587E-8, -2.00819, 1.45633E-8, -121.079, 1.75598E-8, 119.04
3, 0.00000, 2372.39, -1.96888, 2430.22, -121.109, 2394.89, 118.796, 7.43489E-8, -1.98461, 1.45694E-8, -121.257, 1.74751E-8, 118.907
3, 900.00000, 2372.54, -1.96621, 2430.26, -121.108, 2395.02, 118.798, 7.43429E-8, -1.93988, 1.46009E-8, -120.853, 1.75151E-8, 118.849
3, 1800.00000, 2372.06, -1.97267, 2430.08, -121.113, 2394.8, 118.796, 7.43007E-8, -1.97397, 1.45297E-8, -121.012, 1.74926E-8, 118.74
3, 2700.00000, 2371.58, -1.97918, 2429.9, -121.118, 2394.57, 118.793, 7.43104E-8, -1.96809, 1.46055E-8, -121.146, 1.75402E-8, 118.776
4, 0.00000, 2371.1, -1.98569, 2429.72, -121.123, 2394.35, 118.791, 7.43088E-8, -1.97165, 1.45754E-8, -121.172, 1.75302E-8, 118.889
4, 900.00000, 2370.62, -1.99221, 2429.54, -121.129, 2394.13, 118.789, 7.42609E-8, -2.01926, 1.4514E-8, -120.853, 1.75372E-8, 118.931
4, 1800.00000, 2369.26, -2.01141, 2429.03, -121.143, 2393.43, 118.782, 7.42387E-8, -1.99107, 1.46295E-8, -121.164, 1.74932E-8, 118.793
4, 2700.00000, 2367.89, -2.03068, 2428.54, -121.157, 2392.72, 118.774, 7.41577E-8, -2.01082, 1.45084E-8, -120.816, 1.74829E-8, 118.88
5, 0.00000, 2366.53, -2.04995, 2428.04, -121.171, 2392.02, 118.767, 7.41586E-8, -2.03119, 1.45931E-8, -121.163, 1.7501E-8, 118.765
5, 900.00000, 2365.16, -2.06921, 2427.54, -121.185, 2391.32, 118.76, 7.41023E-8, -2.11154, 1.44978E-8, -121.025, 1.74574E-8, 118.926
5, 1800.00000, 2362.47, -2.10733, 2426.61, -121.212, 2390.01, 118.748, 7.40095E-8, -2.1311, 1.45632E-8, -121.368, 1.74368E-8, 118.704
5, 2700.00000, 2359.81, -2.1447, 2425.66, -121.239, 2388.7, 118.735, 7.39192E-8, -2.19226, 1.44746E-8, -121.152, 1.74776E-8, 118.848
6, 0.00000, 2357.15, -2.18212, 2424.71, -121.267, 2387.39, 118.722, 7.38829E-8, -2.18557, 1.45579E-8, -121.704, 1.74145E-8, 118.744
6, 900.00000, 2354.5, -2.21964, 2423.76, -121.294, 2386.04, 118.709, 7.37771E-8, -2.23536, 1.45383E-8, -121.483, 1.74537E-8, 118.755
6, 1800.00000, 2353.17, -2.23786, 2423.27, -121.308, 2385.43, 118.703, 7.37325E-8, -2.2452, 1.45236E-8, -121.291, 1.74386E-8, 118.714
6, 2700.00000, 2367.02, -2.24288, 2437.91, -121.315, 2400.02, 118.705, 7.4186E-8, -2.29474, 1.46558E-8, -121.252, 1.75719E-8, 118.964
7, 0.00000, 2365.69, -2.26094, 2437.42, -121.329, 2399.41, 118.699, 7.41288E-8, -2.26204, 1.46834E-8, -121.51, 1.75246E-8, 118.832
7, 900.00000, 2364.35, -2.27915, 2436.93, -121.343, 2398.79, 118.693, 7.40992E-8, -2.28757, 1.46719E-8, -121.301, 1.7561E-8, 118.875
7, 1800.00000, 2366.92, -2.18116, 2436.57, -121.302, 2400.15, 118.722, 7.4166E-8, -2.20535, 1.46432E-8, -121.54, 1.74905E-8, 118.703
7, 2700.00000, 2368.06, -2.13609, 2436.49, -121.28, 2400.79, 118.739, 7.41961E-8, -2.17002, 1.46231E-8, -121.48, 1.75603E-8, 118.822
8, 0.00000, 2369.18, -2.09212, 2436.35, -121.261, 2401.41, 118.754, 7.42271E-8, -2.07568, 1.46049E-8, -121.018, 1.75933E-8, 118.722
8, 900.00000, 2370.25, -2.0492, 2436.25, -121.241, 2402.01, 118.769, 7.42569E-8, -2.0622, 1.46E-8, -121.276, 1.75634E-8, 118.667
8, 1800.00000, 2371.27, -2.01427, 2436.23, -121.226, 2402.61, 118.782, 7.42822E-8, -1.98709, 1.45889E-8, -121.01, 1.76151E-8, 118.778
8, 2700.00000, 2372.29, -1.97938, 2436.22, -121.21, 2403.21, 118.794, 7.43418E-8, -1.96796, 1.46276E-8, -121.11, 1.75865E-8, 118.829
9, 0.00000, 2373.31, -1.94453, 2436.21, -121.194, 2403.81, 118.806, 7.43861E-8, -1.95137, 1.4585E-8, -121.124, 1.76619E-8, 118.735
9, 900.00000, 2374.23, -1.91165, 2436.32, -121.179, 2404.35, 118.826, 7.43764E-8, -1.91657, 1.45584E-8, -121.02, 1.76153E-8, 119.17
9, 1800.00000, 2374.53, -1.89939, 2436.24, -121.175, 2404.53, 118.829, 7.43689E-8, -1.93079, 1.45619E-8, -120.861, 1.76383E-8, 119.06
9, 2700.00000, 2374.84, -1.8871, 2436.16, -121.172, 2404.72, 118.832, 7.4391E-8, -1.89587, 1.46284E-8, -121.363, 1.76317E-8, 118.802
10, 0.00000, 2375.14, -1.87481, 2436.08, -121.168, 2404.91, 118.835, 7.43817E-8, -1.80429, 1.46116E-8, -120.882, 1.75856E-8, 119.02
10, 900.00000, 2375.45, -1.86253, 2436, -121.164, 2405.1, 118.838, 7.4455E-8, -1.88234, 1.46246E-8, -121.434, 1.7673E-8, 118.85
10, 1800.00000, 2375.81, -1.85398, 2436.09, -121.159, 2405.34, 118.842, 7.442E-8, -1.82788, 1.45708E-8, -121.17, 1.76571E-8, 118.878
10, 2700.00000, 2376.17, -1.84544, 2436.18, -121.155, 2405.59, 118.846, 7.444E-8, -1.89322, 1.46142E-8, -121.367, 1.76747E-8, 118.981
11, 0.00000, 2376.53, -1.83689, 2436.27, -121.15, 2405.84, 118.851, 7.44539E-8, -1.83335, 1.46292E-8, -121.148, 1.76259E-8, 118.988
11, 900.00000, 2376.89, -1.82835, 2436.36, -121.145, 2406.09, 118.855, 7.44311E-8, -1.78838, 1.45714E-8, -121.035, 1.76358E-8, 118.997
11, 1800.00000, 2377.15, -1.82353, 2436.44, -121.143, 2406.29, 118.858, 7.44948E-8, -1.80085, 1.46293E-8, -121.519, 1.76181E-8, 119.016
11, 2700.00000, 2377.41, -1.81872, 2436.52, -121.141, 2406.49, 118.86, 7.45023E-8, -1.79367, 1.46134E-8, -121.294, 1.76213E-8, 119.01
12, 0.00000, 2377.67, -1.8139, 2436.59, -121.139, 2406.69, 118.863, 7.44861E-8, -1.82066, 1.46371E-8, -121.075, 1.76724E-8, 118.797
12, 900.00000, 2377.93, -1.80908, 2436.67, -121.137, 2406.89, 118.865, 7.45251E-8, -1.8183, 1.46054E-8, -121.489, 1.76369E-8, 118.955
12, 1800.00000, 2377.83, -1.81599, 2436.8, -121.138, 2406.9, 118.866, 7.44829E-8, -1.81023, 1.45811E-8, -121.07, 1.77157E-8, 118.881
12, 2700.00000, 2377.74, -1.82294, 2436.93, -121.139, 2406.9, 118.867, 7.4463E-8, -1.83382, 1.46352E-8, -121.146, 1.76796E-8, 118.717
13, 0.00000, 2377.64, -1.82988, 2437.06, -121.141, 2406.9, 118.867, 7.44808E-8, -1.80328, 1.45708E-8, -120.961, 1.76605E-8, 119.142
13, 900.00000, 2377.54, -1.83683, 2437.19, -121.142, 2406.91, 118.868, 7.44712E-8, -1.87633, 1.45954E-8, -121.012, 1.77214E-8, 118.817
13, 1800.00000, 2377.21, -1.85, 2437.31, -121.146, 2406.76, 118.867, 7.44432E-8, -1.8168, 1.46603E-8, -120.867, 1.76567E-8, 118.973
13, 2700.00000, 2376.88, -1.8632, 2437.43, -121.15, 2406.61, 118.865, 7.44706E-8, -1.86304, 1.4619E-8, -121.343, 1.76362E-8, 118.902
14, 0.00000, 2376.55, -1.8764, 2437.55, -121.154, 2406.46, 118.864, 7.44433E-8, -1.86442, 1.4632E-8, -121.4, 1.75931E-8, 118.966
14, 900.00000, 2376.22, -1.88961, 2437.68, -121.157, 2406.31, 118.863, 7.44281E-8, -1.90053, 1.46151E-8, -121.098, 1.76655E-8, 119.025
14, 1800.00000, 2375.3, -1.92385, 2437.68, -121.173, 2405.7, 118.848, 7.44093E-8, -1.91923, 1.46583E-8, -121.158, 1.76185E-8, 118.92
14, 2700.00000, 2374.38, -1.95817, 2437.69, -121.189, 2405.08, 118.834, 7.44039E-8, -1.98314, 1.46159E-8, -121.392, 1.76192E-8, 118.973
15, 0.00000, 2373.45, -1.99252, 2437.7, -121.204, 2404.47, 118.82, 7.43499E-8, -1.9951, 1.46594E-8, -121.343, 1.76239E-8, 118.829
15, 900.00000, 2372.52, -2.02691, 2437.71, -121.22, 2403.85, 118.805, 7.43655E-8, -2.07812, 1.4628E-8, -121.401, 1.76472E-8, 118.869
15, 1800.00000, 2370.34, -2.08594, 2437.45, -121.248, 2402.47, 118.782, 7.42995E-8, -2.11436, 1.4649E-8, -121.372, 1.76776E-8, 118.828
15, 2700.00000, 2367.52, -2.16974, 2437.66, -121.277, 2400.87, 118.765, 7.41644E-8, -2.15337, 1.46197E-8, -121.225, 1.76277E-8, 118.877
16, 0.00000, 2365.56, -2.21899, 2437.13, -121.307, 2399.54, 118.736, 7.4082E-8, -2.20926, 1.46152E-8, -121.181, 1.76137E-8, 118.794
16, 900.00000, 2362.47, -2.3103, 2436.55, -121.358, 2397.55, 118.689, 7.40331E-8, -2.26778, 1.46379E-8, -121.519, 1.7483E-8, 118.757
16, 1800.00000, 2359.37, -2.35792, 2435.52, -121.386, 2395.56, 118.668, 7.39348E-8, -2.32158, 1.45806E-8, -121.247, 1.75044E-8, 118.909
16, 2700.00000, 2356.25, -2.4056, 2434.5, -121.414, 2393.57, 118.646, 7.38731E-8, -2.40189, 1.45781E-8, -121.245, 1.75653E-8, 118.826
17, 0.00000, 2353.12, -2.46232, 2433.62, -121.439, 2391.47, 118.626, 7.37182E-8, -2.45788, 1.45882E-8, -121.296, 1.74746E-8, 118.432
17, 900.00000, 2350.1, -2.50809, 2432.47, -121.466, 2389.52, 118.597, 7.36477E-8, -2.51477, 1.46112E-8, -121.458, 1.75085E-8, 118.562
17, 1800.00000, 2364.64, -2.50396, 2447.38, -121.463, 2404.22, 118.599, 7.40347E-8, -2.52487, 1.46695E-8, -121.652, 1.76168E-8, 118.491
17, 2700.00000, 2363.97, -2.51439, 2447.16, -121.469, 2403.76, 118.594, 7.4018E-8, -2.54376, 1.46567E-8, -121.666, 1.76043E-8, 118.541
18, 0.00000, 2363.28, -2.52503, 2446.93, -121.475, 2403.28, 118.589, 7.40023E-8, -2.5147, 1.47299E-8, -121.844, 1.76471E-8, 118.25
18, 900.00000, 2362.6, -2.53567, 2446.71, -121.481, 2402.81, 118.583, 7.39934E-8, -2.53544, 1.47144E-8, -122.015, 1.76032E-8, 118.435
18, 1800.00000, 2363.23, -2.52717, 2446.94, -121.474, 2403.1, 118.586, 7.39934E-8, -2.55025, 1.46754E-8, -121.838, 1.7616E-8, 118.412
18, 2700.00000, 2363.86, -2.5185, 2447.16, -121.468, 2403.4, 118.589, 7.40513E-8, -2.47992, 1.4698E-8, -121.792, 1.75631E-8, 118.641
19, 0.00000, 2364.49, -2.50983, 2447.38, -121.461, 2403.69, 118.591, 7.40268E-8, -2.52936, 1.46268E-8, -121.517, 1.76017E-8, 118.599
19, 900.00000, 2365.13, -2.50116, 2447.61, -121.455, 2403.99, 118.594, 7.4071E-8, -2.49123, 1.47459E-8, -122.051, 1.76298E-8, 118.321
19, 1800.00000, 2366.06, -2.4882, 2447.93, -121.445, 2404.46, 118.599, 7.41166E-8, -2.49181, 1.46963E-8, -121.754, 1.75977E-8, 118.525
19, 2700.00000, 2366.99, -2.47519, 2448.26, -121.436, 2404.94, 118.603, 7.41175E-8, -2.49248, 1.46527E-8, -121.776, 1.75954E-8, 118.462
20, 0.00000, 2367.92, -2.46219, 2448.58, -121.427, 2405.41, 118.608, 7.41481E-8, -2.48583, 1.46516E-8, -121.674, 1.76514E-8, 118.525
20, 900.00000, 2368.89, -2.44835, 2448.89, -121.418, 2405.89, 118.612, 7.42245E-8, -2.50857, 1.46869E-8, -121.41, 1.76255E-8, 118.543
20, 1800.00000, 2370.64, -2.42611, 2449.39, -121.395, 2406.66, 118.619, 7.4279E-8, -2.43299, 1.46594E-8, -121.643, 1.7586E-8, 118.654
20, 2700.00000, 2372.27, -2.40262, 2449.94, -121.379, 2407.53, 118.627, 7.43318E-8, -2.38285, 1.47185E-8, -121.34, 1.76119E-8, 118.487
21, 0.00000, 2373.86, -2.37956, 2450.5, -121.364, 2408.44, 118.637, 7.44014E-8, -2.39043, 1.46427E-8, -121.249, 1.76352E-8, 118.823
21, 900.00000, 2375.47, -2.35676, 2451.06, -121.348, 2409.31, 118.645, 7.44574E-8, -2.3403, 1.47202E-8, -121.323, 1.75768E-8, 118.698
21, 1800.00000, 2377.63, -2.31731, 2451.8, -121.33, 2410.61, 118.664, 7.4526E-8, -2.33885, 1.47278E-8, -121.181, 1.76764E-8, 118.722
21, 2700.00000, 2379.88, -2.28486, 2452.58, -121.308, 2411.86, 118.677, 7.45548E-8, -2.27009, 1.47261E-8, -121.02, 1.77042E-8, 118.74
22, 0.00000, 2382.12, -2.25233, 2453.35, -121.286, 2413.1, 118.69, 7.46226E-8, -2.19884, 1.46316E-8, -120.818, 1.77016E-8, 118.92
22, 900.00000, 2384.4, -2.21916, 2454.11, -121.265, 2414.36, 118.702, 7.47131E-8, -2.23387, 1.46788E-8, -121.18, 1.76517E-8, 118.699
22, 1800.00000, 2386.67, -2.18591, 2454.88, -121.243, 2415.65, 118.715, 7.47712E-8, -2.1861, 1.46687E-8, -120.922, 1.76938E-8, 118.678
22, 2700.00000, 2389.04, -2.14454, 2455.43, -121.217, 2416.97, 118.725, 7.4896E-8, -2.17758, 1.47469E-8, -121.521, 1.77687E-8, 118.68
23, 0.00000, 2391.3, -2.1113, 2456.2, -121.196, 2418.27, 118.738, 7.49395E-8, -2.14779, 1.46863E-8, -121.229, 1.77281E-8, 118.832
23, 900.00000, 2393.48, -2.08014, 2457.09, -121.175, 2419.47, 118.759, 7.50005E-8, -2.08207, 1.47586E-8, -121.133, 1.77817E-8, 118.683
23, 1800.00000, 2379.77, -2.06977, 2442.45, -121.168, 2405.18, 118.761, 7.45356E-8, -2.13215, 1.46049E-8, -121.239, 1.75684E-8, 118.821
23, 2700.00000, 2381.24, -2.04754, 2442.95, -121.154, 2406.05, 118.77, 7.46234E-8, -2.10308, 1.46485E-8, -121.369, 1.7603E-8, 118.853
24, 0.00000, 2382.73, -2.02512, 2443.44, -121.141, 2406.93, 118.779, 7.46588E-8, -2.07205, 1.46196E-8, -121.238, 1.76542E-8, 118.91
