hour,t(sec),"P1 (kW)","Q1 (kvar)","P2 (kW)","Q2 (kvar)","P3 (kW)","Q3 (kvar)"
4608, 900.00000, 1368.57, 466.974, 962.641, 276.858, 1136.69, 317.83
4608, 1800.00000, 1367.37, 462.821, 965.419, 274.507, 1138.55, 315.601
4608, 2700.00000, 1353.42, 454.321, 955.704, 268.427, 1127.72, 309.476
4609, 0.00000, 1339.39, 445.855, 945.889, 262.328, 1114.56, 305.259
4609, 900.00000, 1325.39, 437.371, 936.159, 256.259, 1103.78, 299.19
4609, 1800.00000, 1309.85, 431.218, 927.571, 250.993, 1093.84, 293.711
4609, 2700.00000, 1297.64, 423.831, 918.977, 245.673, 1084.24, 288.329
4610, 0.00000, 1285.3, 416.38, 910.407, 240.371, 1074.59, 282.929
4610, 900.00000, 1272.96, 408.941, 901.836, 235.076, 1064.93, 277.536
4610, 1800.00000, 1265.11, 404.399, 896.224, 231.836, 1058.59, 274.172
4610, 2700.00000, 1257.86, 400.098, 889.236, 230.863, 1053.02, 271.114
4611, 0.00000, 1250.78, 395.835, 884.331, 227.848, 1047.36, 267.958
4611, 900.00000, 1243.63, 391.545, 879.394, 224.82, 1041.7, 264.808
4611, 1800.00000, 1239.94, 389.44, 876.733, 223.353, 1038.63, 263.231
4611, 2700.00000, 1236.74, 387.499, 874.534, 222.021, 1036.03, 261.796
4612, 0.00000, 1233.54, 385.561, 872.335, 220.69, 1033.43, 260.363
4612, 900.00000, 1230.34, 383.624, 870.136, 219.359, 1030.83, 258.93
4612, 1800.00000, 1230.6, 383.877, 870.213, 219.594, 1030.78, 259.051
4612, 2700.00000, 1231.36, 384.301, 870.773, 219.968, 1031.23, 259.321
4613, 0.00000, 1232.13, 384.726, 871.334, 220.342, 1031.68, 259.591
4613, 900.00000, 1232.9, 385.151, 871.895, 220.716, 1032.13, 259.862
4613, 1800.00000, 1231.82, 384.318, 871.338, 220.373, 1030.76, 259.072
4613, 2700.00000, 1230.43, 383.382, 870.481, 219.944, 1029.08, 258.189
4614, 0.00000, 1229.03, 382.446, 869.622, 219.514, 1027.39, 257.306
4614, 900.00000, 1227.63, 381.509, 868.764, 219.084, 1025.71, 256.423
4614, 1800.00000, 1231.82, 386.212, 870.288, 222.458, 1027.82, 259.723
4614, 2700.00000, 1217.36, 388.086, 864.478, 225.441, 1022.48, 262.611
4615, 0.00000, 1193.89, 391.239, 857.068, 228.911, 1015.04, 265.729
4615, 900.00000, 1184.06, 394.503, 851.802, 232.29, 1010.31, 269.017
4615, 1800.00000, 1180.05, 401.451, 852.124, 238.327, 1012.38, 275.417
4615, 2700.00000, 1177.03, 408.727, 853.403, 244.645, 1015.42, 282.108
4616, 0.00000, 1174.03, 416.018, 854.678, 250.966, 1018.45, 288.803
4616, 900.00000, 1171.02, 423.32, 855.948, 257.29, 1021.48, 295.501
4616, 1800.00000, 1175.99, 430.328, 861.481, 262.954, 1028.22, 301.321
4616, 2700.00000, 1180.61, 437.235, 866.636, 268.51, 1034.6, 307.045
4617, 0.00000, 1185.22, 444.142, 871.787, 274.068, 1040.98, 312.773
4617, 900.00000, 1189.83, 451.05, 876.937, 279.629, 1047.35, 318.506
4617, 1800.00000, 1198.5, 457.984, 883.978, 284.858, 1055.67, 323.994
4617, 2700.00000, 1207.06, 464.89, 890.889, 290.052, 1063.88, 329.457
4618, 0.00000, 1215.62, 471.8, 897.8, 295.25, 1072.08, 334.926
4618, 900.00000, 1224.17, 478.714, 904.708, 300.453, 1080.28, 340.4
4618, 1800.00000, 1231.56, 484.638, 910.37, 304.787, 1087.32, 345.156
4618, 2700.00000, 1238.75, 490.449, 918.145, 307.254, 1094.02, 349.742
4619, 0.00000, 1245.83, 496.261, 923.519, 311.502, 1100.81, 354.431
4619, 900.00000, 1252.96, 502.11, 928.944, 315.783, 1107.6, 359.122
4619, 1800.00000, 1264.13, 508.929, 936.791, 320.622, 1116.78, 364.303
4619, 2700.00000, 1275.72, 515.992, 944.791, 325.516, 1126.16, 369.559
4620, 0.00000, 1286.98, 522.843, 952.766, 330.4, 1135.46, 374.782
4620, 900.00000, 1298.31, 529.754, 960.753, 335.298, 1144.79, 380.034
4620, 1800.00000, 1308.17, 535.476, 967.636, 339.165, 1153.19, 384.463
4620, 2700.00000, 1320.96, 539.919, 974.113, 342.857, 1161.43, 388.808
4621, 0.00000, 1330.49, 545.522, 980.775, 346.665, 1169.54, 393.146
4621, 900.00000, 1340.11, 551.2, 987.418, 350.469, 1177.7, 397.513
4621, 1800.00000, 1352.49, 557.065, 996.109, 354.043, 1188.69, 402.177
4621, 2700.00000, 1364.87, 562.947, 1004.8, 357.621, 1199.69, 406.856
4622, 0.00000, 1377.26, 568.84, 1013.49, 361.203, 1210.69, 411.542
4622, 900.00000, 1389.64, 574.746, 1022.18, 364.79, 1221.69, 416.236
4622, 1800.00000, 1399.34, 579.398, 1027.91, 367.405, 1229.38, 419.835
4622, 2700.00000, 1416.69, 584.51, 1038.59, 369.47, 1243.16, 423.09
4623, 0.00000, 1425.96, 588.993, 1043.97, 371.972, 1250.43, 426.543
4623, 900.00000, 1435.33, 593.563, 1049.37, 374.492, 1257.8, 430.049
4623, 1800.00000, 1450.24, 599.584, 1058.87, 378.029, 1269.1, 434.375
4623, 2700.00000, 1465.38, 605.714, 1068.57, 381.633, 1280.61, 438.779
4624, 0.00000, 1480.52, 611.868, 1078.27, 385.244, 1292.13, 443.191
4624, 900.00000, 1495.66, 618.047, 1087.97, 388.862, 1303.66, 447.61
4624, 1800.00000, 1508.69, 622.384, 1095.82, 391.154, 1312.81, 450.521
4624, 2700.00000, 1521.21, 626.554, 1103.17, 393.288, 1321.45, 453.263
4625, 0.00000, 1533.73, 630.741, 1110.51, 395.426, 1330.09, 456.008
4625, 900.00000, 1546.26, 634.947, 1117.86, 397.566, 1338.73, 458.756
4625, 1800.00000, 1570.37, 636.659, 1130.64, 398.007, 1352.13, 459.464
4625, 2700.00000, 1582.54, 638.319, 1135.63, 398.025, 1357.14, 459.458
4626, 0.00000, 1594.88, 640.118, 1140.53, 397.995, 1362.21, 459.48
4626, 900.00000, 1607.23, 641.951, 1145.42, 397.965, 1367.28, 459.502
4626, 1800.00000, 1613.77, 639.412, 1146.55, 395.1, 1367.2, 456.127
4626, 2700.00000, 1632.21, 638.709, 1151.67, 392.045, 1371.39, 452.586
4627, 0.00000, 1650.99, 638.789, 1158.25, 389.697, 1376.99, 449.733
4627, 900.00000, 1642.26, 633.113, 1152.24, 385.957, 1369.48, 445.433
4627, 1800.00000, 1640.42, 632.228, 1150.68, 385.313, 1367.84, 444.771
4627, 2700.00000, 1639.77, 631.806, 1150.23, 385.026, 1367.37, 444.503
4628, 0.00000, 1639.13, 631.393, 1149.79, 384.742, 1366.9, 444.238
4628, 900.00000, 1638.49, 630.979, 1149.34, 384.457, 1366.44, 443.973
4628, 1800.00000, 1631.28, 626.027, 1144.67, 381.206, 1360.62, 440.381
4628, 2700.00000, 1622.93, 620.642, 1138.95, 377.62, 1353.7, 436.422
4629, 0.00000, 1614.57, 615.256, 1133.23, 374.036, 1346.78, 432.463
4629, 900.00000, 1606.21, 609.876, 1127.51, 370.454, 1339.86, 428.508
4629, 1800.00000, 1583.14, 594.527, 1112.36, 360.273, 1321.21, 417.296
4629, 2700.00000, 1557.88, 578.443, 1095.04, 349.434, 1300.38, 405.402
4630, 0.00000, 1532.61, 562.413, 1077.72, 338.622, 1279.54, 393.538
4630, 900.00000, 1507.33, 546.438, 1060.39, 327.837, 1258.71, 381.707
4630, 1800.00000, 1480.55, 529.536, 1042.27, 316.531, 1236.84, 369.285
4630, 2700.00000, 1453.85, 512.794, 1023.95, 305.197, 1214.59, 356.718
4631, 0.00000, 1423.82, 497.372, 1003.55, 295.913, 1192.61, 344.448
4631, 900.00000, 1397.22, 480.84, 985.212, 284.648, 1170.6, 332.085
4631, 1800.00000, 1376.5, 468.281, 970.744, 276.061, 1153.36, 322.658
4631, 2700.00000, 1356.72, 456.079, 957.188, 267.765, 1137.05, 313.541
4632, 0.00000, 1337.05, 444.026, 943.581, 259.483, 1118.5, 306.399
