hour,t(sec),V1,VAngle1,V2,VAngle2,V3,VAngle3,I1,IAngle1,I2,IAngle2,I3,IAngle3
0, 900.00000, 2498.27, -3.2837, 2505.19, -122.11, 2492.76, 117.662, 81.3956, -102.574, 81.8188, 138.949, 78.2341, 9.03212
0, 1800.00000, 2499.41, -3.26494, 2505.72, -122.101, 2493.69, 117.674, 81.468, -102.476, 81.8658, 139.024, 78.2935, 9.19753
0, 2700.00000, 2500.56, -3.24609, 2506.26, -122.091, 2494.62, 117.686, 81.5408, -102.378, 81.9128, 139.098, 78.3537, 9.3634
1, 0.00000, 2501.7, -3.22724, 2506.79, -122.082, 2495.55, 117.698, 81.6136, -102.28, 81.96, 139.172, 78.4145, 9.52903
1, 900.00000, 2502.87, -3.20796, 2507.31, -122.072, 2496.48, 117.71, 81.6876, -102.182, 82.0068, 139.247, 78.476, 9.69472
1, 1800.00000, 2503.44, -3.19788, 2507.56, -122.068, 2497.05, 117.718, 81.7283, -102.123, 82.0291, 139.281, 78.5101, 9.77873
1, 2700.00000, 2504.01, -3.18772, 2507.81, -122.065, 2497.62, 117.726, 81.7692, -102.064, 82.0514, 139.316, 78.5445, 9.86295
2, 0.00000, 2504.58, -3.17756, 2508.05, -122.061, 2498.19, 117.733, 81.8102, -102.005, 82.0736, 139.35, 78.579, 9.94711
2, 900.00000, 2505.15, -3.1674, 2508.3, -122.057, 2498.76, 117.741, 81.8513, -101.946, 82.0959, 139.385, 78.6137, 10.0312
2, 1800.00000, 2505.37, -3.16348, 2508.4, -122.056, 2498.99, 117.744, 81.87, -101.917, 82.1075, 139.404, 78.6276, 10.0652
2, 2700.00000, 2505.59, -3.15958, 2508.5, -122.054, 2499.22, 117.747, 81.8887, -101.888, 82.1192, 139.423, 78.6415, 10.099
3, 0.00000, 2505.81, -3.15569, 2508.61, -122.053, 2499.44, 117.75, 81.9074, -101.859, 82.1308, 139.443, 78.6554, 10.1328
3, 900.00000, 2506.03, -3.1518, 2508.71, -122.051, 2499.67, 117.753, 81.9262, -101.83, 82.1425, 139.462, 78.6694, 10.1665
3, 1800.00000, 2505.29, -3.16295, 2508.35, -122.059, 2499.22, 117.748, 81.8903, -101.867, 82.1158, 139.423, 78.6342, 10.0655
3, 2700.00000, 2504.54, -3.17418, 2507.99, -122.066, 2498.78, 117.743, 81.8542, -101.904, 82.0891, 139.383, 78.5992, 9.96416
4, 0.00000, 2503.8, -3.18542, 2507.64, -122.073, 2498.33, 117.738, 81.8181, -101.941, 82.0625, 139.344, 78.5644, 9.86268
4, 900.00000, 2503.06, -3.19666, 2507.28, -122.081, 2497.88, 117.732, 81.782, -101.978, 82.036, 139.304, 78.5297, 9.76111
4, 1800.00000, 2500.97, -3.22881, 2506.27, -122.101, 2496.52, 117.716, 81.6708, -102.104, 81.9555, 139.182, 78.4297, 9.46988
4, 2700.00000, 2498.88, -3.26109, 2505.26, -122.121, 2495.16, 117.699, 81.5595, -102.231, 81.8755, 139.059, 78.3312, 9.17749
5, 0.00000, 2496.78, -3.29337, 2504.25, -122.141, 2493.8, 117.682, 81.4484, -102.358, 81.7956, 138.936, 78.2346, 8.88438
5, 900.00000, 2494.69, -3.32567, 2503.24, -122.161, 2492.44, 117.666, 81.3375, -102.486, 81.716, 138.813, 78.1398, 8.59056
5, 1800.00000, 2490.6, -3.3874, 2501.24, -122.202, 2489.95, 117.636, 81.1199, -102.738, 81.5513, 138.55, 77.9654, 8.01817
5, 2700.00000, 2486.55, -3.44855, 2499.22, -122.243, 2487.47, 117.605, 80.9046, -102.991, 81.3871, 138.285, 77.7984, 7.44382
6, 0.00000, 2482.49, -3.5098, 2497.2, -122.284, 2484.99, 117.575, 80.6899, -103.244, 81.2242, 138.02, 77.6383, 6.867
6, 900.00000, 2478.43, -3.57118, 2495.18, -122.324, 2482.49, 117.544, 80.4761, -103.499, 81.0624, 137.754, 77.4846, 6.28698
6, 1800.00000, 2476.38, -3.60158, 2494.15, -122.346, 2481.31, 117.53, 80.3744, -103.613, 80.9839, 137.626, 77.4125, 5.99719
6, 2700.00000, 2490.62, -3.61299, 2508.94, -122.356, 2496.18, 117.528, 80.8326, -103.635, 81.4494, 137.58, 77.8623, 5.88096
7, 0.00000, 2488.58, -3.64317, 2507.91, -122.377, 2494.99, 117.514, 80.7313, -103.749, 81.3713, 137.453, 77.7927, 5.59191
7, 900.00000, 2486.52, -3.67359, 2506.89, -122.398, 2493.8, 117.5, 80.6294, -103.864, 81.2936, 137.325, 77.7247, 5.3019
7, 1800.00000, 2492.06, -3.44882, 2505.17, -122.336, 2496.7, 117.513, 80.551, -102.505, 80.9617, 138.474, 77.2293, 6.41553
7, 2700.00000, 2494.39, -3.35228, 2504.51, -122.307, 2497.94, 117.523, 80.5245, -101.929, 80.8289, 138.965, 77.0255, 6.88654
8, 0.00000, 2496.68, -3.25707, 2503.79, -122.28, 2499.17, 117.531, 80.5028, -101.354, 80.699, 139.455, 76.8266, 7.35896
8, 900.00000, 2498.92, -3.163, 2503.1, -122.253, 2500.38, 117.539, 80.4845, -100.783, 80.576, 139.948, 76.632, 7.83171
8, 1800.00000, 2500.94, -3.08786, 2502.77, -122.23, 2501.58, 117.548, 80.5022, -100.326, 80.507, 140.341, 76.5113, 8.23801
8, 2700.00000, 2502.95, -3.01287, 2502.44, -122.208, 2502.77, 117.558, 80.5232, -99.8704, 80.4416, 140.734, 76.3944, 8.64522
9, 0.00000, 2504.95, -2.93803, 2502.11, -122.185, 2503.97, 117.568, 80.5475, -99.4155, 80.3796, 141.128, 76.2814, 9.05336
9, 900.00000, 2506.71, -2.87147, 2502.21, -122.163, 2489.69, 117.597, 80.5674, -98.9707, 80.3368, 141.524, 75.6464, 9.37036
9, 1800.00000, 2507.48, -2.83812, 2501.9, -122.156, 2490.2, 117.6, 80.5714, -98.7985, 80.2958, 141.657, 75.5993, 9.513
9, 2700.00000, 2508.25, -2.80475, 2501.59, -122.149, 2490.72, 117.603, 80.576, -98.6264, 80.2551, 141.79, 75.553, 9.65647
10, 0.00000, 2509.02, -2.77139, 2501.28, -122.142, 2491.24, 117.606, 80.5809, -98.4544, 80.2148, 141.923, 75.5073, 9.80006
10, 900.00000, 2509.78, -2.73806, 2500.97, -122.135, 2491.76, 117.609, 80.5863, -98.2825, 80.1749, 142.056, 75.4621, 9.94377
10, 1800.00000, 2510.35, -2.72313, 2501.07, -122.13, 2492.21, 117.614, 80.6153, -98.2115, 80.1827, 142.11, 75.4738, 10.0308
10, 2700.00000, 2510.92, -2.70823, 2501.17, -122.125, 2492.66, 117.619, 80.6443, -98.1406, 80.1906, 142.163, 75.4857, 10.1178
11, 0.00000, 2511.5, -2.69333, 2501.27, -122.12, 2493.11, 117.624, 80.6735, -98.0697, 80.1985, 142.217, 75.4977, 10.2047
11, 900.00000, 2512.07, -2.67844, 2501.37, -122.115, 2493.56, 117.63, 80.7027, -97.9989, 80.2065, 142.27, 75.5099, 10.2916
11, 1800.00000, 2512.48, -2.66948, 2501.49, -122.112, 2493.96, 117.634, 80.7308, -97.951, 80.2176, 142.3, 75.5288, 10.356
11, 2700.00000, 2512.89, -2.66053, 2501.61, -122.11, 2494.35, 117.639, 80.7588, -97.9033, 80.2288, 142.33, 75.5477, 10.4204
12, 0.00000, 2513.3, -2.65158, 2501.73, -122.107, 2494.75, 117.644, 80.787, -97.8555, 80.2399, 142.36, 75.5668, 10.4847
12, 900.00000, 2513.71, -2.64264, 2501.86, -122.104, 2495.15, 117.649, 80.8151, -97.8078, 80.2511, 142.389, 75.5859, 10.549
12, 1800.00000, 2513.42, -2.65959, 2502.28, -122.104, 2495.13, 117.656, 80.8162, -97.8074, 80.2734, 142.4, 75.5922, 10.5792
12, 2700.00000, 2513.12, -2.6766, 2502.71, -122.104, 2495.11, 117.664, 80.8171, -97.8072, 80.2959, 142.411, 75.5982, 10.6091
13, 0.00000, 2512.82, -2.69361, 2503.14, -122.104, 2495.09, 117.671, 80.8181, -97.8069, 80.3184, 142.422, 75.6043, 10.6391
13, 900.00000, 2512.52, -2.71064, 2503.57, -122.104, 2495.07, 117.679, 80.819, -97.8067, 80.3409, 142.432, 75.6104, 10.6691
13, 1800.00000, 2511.72, -2.74414, 2503.91, -122.111, 2494.69, 117.68, 80.8073, -97.9694, 80.3685, 142.292, 75.6514, 10.5374
13, 2700.00000, 2510.92, -2.7777, 2504.26, -122.118, 2494.3, 117.681, 80.7958, -98.1322, 80.3966, 142.152, 75.6928, 10.4058
14, 0.00000, 2510.12, -2.81128, 2504.6, -122.126, 2493.91, 117.683, 80.7847, -98.2953, 80.4251, 142.012, 75.7346, 10.2742
14, 900.00000, 2509.32, -2.84488, 2504.94, -122.133, 2493.53, 117.684, 80.774, -98.4584, 80.4541, 141.872, 75.7768, 10.1428
14, 1800.00000, 2507.51, -2.91728, 2505.35, -122.153, 2492.33, 117.673, 80.7483, -98.8826, 80.5199, 141.521, 75.8781, 9.77419
14, 2700.00000, 2505.69, -2.98986, 2505.76, -122.174, 2491.12, 117.661, 80.7253, -99.3077, 80.5887, 141.17, 75.9822, 9.40583
15, 0.00000, 2503.86, -3.06257, 2506.18, -122.194, 2489.92, 117.649, 80.7052, -99.7336, 80.6601, 140.82, 76.0894, 9.03819
15, 900.00000, 2502.03, -3.13539, 2506.59, -122.214, 2488.72, 117.638, 80.688, -100.16, 80.7343, 140.471, 76.1997, 8.67129
15, 1800.00000, 2498.06, -3.25891, 2506.39, -122.257, 2485.97, 117.607, 80.5856, -100.963, 80.7839, 139.792, 76.3286, 7.86353
15, 2700.00000, 2492.4, -3.45087, 2507.51, -122.301, 2482.56, 117.597, 80.4365, -101.843, 80.8895, 139.117, 76.4501, 7.07388
16, 0.00000, 2489.09, -3.54512, 2506.58, -122.347, 2480.08, 117.551, 80.3811, -102.621, 80.9338, 138.434, 76.6171, 6.25725
16, 900.00000, 2483.69, -3.7226, 2505.95, -122.423, 2476.44, 117.492, 80.4337, -104.167, 81.1663, 137.062, 77.1273, 4.75585
16, 1800.00000, 2479.06, -3.79694, 2503.7, -122.463, 2472.84, 117.445, 80.1404, -104.597, 80.9698, 136.714, 76.958, 4.05951
16, 2700.00000, 2474.41, -3.87142, 2501.46, -122.503, 2469.24, 117.398, 79.8496, -105.031, 80.7757, 136.364, 76.7985, 3.36003
17, 0.00000, 2484.63, -3.96839, 2499.59, -122.536, 2465.24, 117.353, 80.0716, -105.412, 80.5967, 136.023, 76.6355, 2.65457
17, 900.00000, 2480.2, -4.03501, 2496.93, -122.576, 2476.89, 117.286, 79.7936, -105.838, 80.3919, 135.667, 76.978, 2.11162
17, 1800.00000, 2495.61, -4.03014, 2512.28, -122.571, 2492.07, 117.288, 80.2903, -105.831, 80.893, 135.69, 77.4513, 2.15962
17, 2700.00000, 2494.6, -4.04656, 2511.8, -122.579, 2491.21, 117.277, 80.2264, -105.932, 80.8529, 135.616, 77.4192, 2.00784
18, 0.00000, 2493.57, -4.06334, 2511.33, -122.587, 2490.34, 117.265, 80.1619, -106.034, 80.8132, 135.541, 77.3871, 1.85422
18, 900.00000, 2492.55, -4.08013, 2510.86, -122.595, 2489.46, 117.254, 80.0974, -106.137, 80.7736, 135.467, 77.3555, 1.70046
18, 1800.00000, 2493.51, -4.06627, 2511.35, -122.585, 2490.01, 117.261, 80.145, -106.078, 80.8103, 135.533, 77.3766, 1.8377
18, 2700.00000, 2494.49, -4.05212, 2511.84, -122.575, 2490.57, 117.267, 80.1933, -106.017, 80.847, 135.6, 77.3983, 1.97609
19, 0.00000, 2495.46, -4.03796, 2512.33, -122.565, 2491.12, 117.274, 80.2417, -105.956, 80.8837, 135.666, 77.4205, 2.11442
19, 900.00000, 2496.43, -4.02381, 2512.81, -122.555, 2491.68, 117.28, 80.2901, -105.896, 80.9205, 135.733, 77.4431, 2.25266
19, 1800.00000, 2497.86, -4.00264, 2513.51, -122.541, 2492.57, 117.291, 80.3637, -105.799, 80.9738, 135.829, 77.4793, 2.45608
19, 2700.00000, 2499.28, -3.9814, 2514.21, -122.528, 2493.46, 117.302, 80.4376, -105.703, 81.0271, 135.924, 77.5164, 2.6596
20, 0.00000, 2500.71, -3.96017, 2514.91, -122.514, 2494.35, 117.313, 80.5116, -105.606, 81.0807, 136.02, 77.5544, 2.86292
20, 900.00000, 2502.17, -3.93827, 2515.58, -122.5, 2495.25, 117.324, 80.5873, -105.509, 81.1337, 136.115, 77.5935, 3.06649
20, 1800.00000, 2505.05, -3.90124, 2501.05, -122.459, 2496.62, 117.335, 80.7349, -105.329, 80.6877, 136.219, 77.6577, 3.40712
20, 2700.00000, 2507.54, -3.86331, 2502.21, -122.436, 2498.26, 117.355, 80.8689, -105.152, 80.78, 136.385, 77.7327, 3.76003
21, 0.00000, 2509.99, -3.8259, 2503.38, -122.413, 2499.92, 117.376, 81.0018, -104.976, 80.8737, 136.55, 77.811, 4.11301
21, 900.00000, 2512.43, -3.78885, 2504.56, -122.39, 2501.54, 117.396, 81.1349, -104.801, 80.9678, 136.715, 77.8905, 4.46279
21, 1800.00000, 2500.52, -3.72269, 2506.29, -122.367, 2488.81, 117.441, 80.8006, -104.606, 81.1063, 136.944, 77.523, 4.81669
21, 2700.00000, 2503.93, -3.67055, 2507.94, -122.335, 2491.11, 117.47, 80.9921, -104.351, 81.2426, 137.18, 77.6432, 5.31016
22, 0.00000, 2507.33, -3.6183, 2509.59, -122.303, 2493.42, 117.499, 81.1848, -104.096, 81.3797, 137.415, 77.7689, 5.803
22, 900.00000, 2510.75, -3.56565, 2511.22, -122.271, 2495.73, 117.528, 81.3792, -103.841, 81.5172, 137.65, 77.8996, 6.29413
22, 1800.00000, 2514.18, -3.51275, 2512.88, -122.239, 2498.11, 117.558, 81.58, -103.575, 81.6605, 137.892, 78.0383, 6.79096
22, 2700.00000, 2502.73, -3.43841, 2498.35, -122.199, 2500.68, 117.578, 81.2703, -103.353, 81.2466, 138.071, 78.1898, 7.27754
23, 0.00000, 2506.11, -3.38565, 2500, -122.167, 2503.06, 117.608, 81.4714, -103.088, 81.3912, 138.313, 78.339, 7.77115
23, 900.00000, 2509.29, -3.34139, 2502.07, -122.135, 2489.8, 117.656, 81.6672, -102.833, 81.5522, 138.557, 77.977, 8.13925
23, 1800.00000, 2495.31, -3.32374, 2487.54, -122.124, 2475.54, 117.665, 81.2479, -102.734, 81.1147, 138.65, 77.5587, 8.31019
23, 2700.00000, 2497.51, -3.28924, 2488.63, -122.104, 2477.1, 117.685, 81.3859, -102.549, 81.2156, 138.818, 77.6628, 8.6356
24, 0.00000, 2499.72, -3.25442, 2489.72, -122.083, 2478.67, 117.706, 81.5251, -102.364, 81.3168, 138.986, 77.7695, 8.96149
