hour,t(sec),V1,VAngle1,V2,VAngle2,V3,VAngle3,I1,IAngle1,I2,IAngle2,I3,IAngle3
4776, 900.00000, 2977.15, -13.631, 2929.26, -103.494, 135.032, 56.473, 244.062, 138.321, 137.141, 41.5582, 27026.9, -123.53
4776, 1800.00000, 2977.3, -13.6294, 2929.29, -103.493, 135.031, 56.4714, 241.816, 138.315, 136.006, 41.5614, 27026.5, -123.532
4776, 2700.00000, 2977.46, -13.6278, 2929.32, -103.491, 135.03, 56.4698, 239.569, 138.309, 134.871, 41.5644, 27026, -123.533
4777, 0.00000, 2977.61, -13.6261, 2929.35, -103.489, 135.028, 56.4682, 237.322, 138.303, 133.737, 41.5674, 27025.5, -123.535
4777, 900.00000, 2977.77, -13.6245, 2929.37, -103.488, 135.027, 56.4665, 235.073, 138.297, 132.601, 41.5702, 27025.1, -123.536
4777, 1800.00000, 2977.89, -13.6232, 2929.4, -103.486, 135.026, 56.4653, 233.377, 138.29, 131.765, 41.5747, 27024.7, -123.537
4777, 2700.00000, 2978, -13.622, 2929.42, -103.485, 135.025, 56.4641, 231.681, 138.283, 130.928, 41.5791, 27024.4, -123.539
4778, 0.00000, 2978.12, -13.6207, 2929.44, -103.484, 135.024, 56.4629, 229.984, 138.277, 130.092, 41.5835, 27024, -123.54
4778, 900.00000, 2978.24, -13.6195, 2929.46, -103.483, 135.023, 56.4617, 228.286, 138.27, 129.255, 41.5879, 27023.7, -123.541
4778, 1800.00000, 2978.33, -13.6185, 2929.47, -103.482, 135.022, 56.4607, 226.982, 138.264, 128.615, 41.5903, 27023.4, -123.542
4778, 2700.00000, 2978.42, -13.6176, 2929.49, -103.481, 135.021, 56.4598, 225.678, 138.259, 127.975, 41.5927, 27023.2, -123.542
4779, 0.00000, 2978.51, -13.6166, 2929.51, -103.48, 135.02, 56.4588, 224.374, 138.254, 127.335, 41.5951, 27022.9, -123.543
4779, 900.00000, 2978.6, -13.6157, 2929.52, -103.479, 135.02, 56.4579, 223.069, 138.248, 126.695, 41.5975, 27022.6, -123.544
4779, 1800.00000, 2978.62, -13.6154, 2929.53, -103.478, 135.019, 56.4576, 222.718, 138.248, 126.506, 41.5975, 27022.6, -123.544
4779, 2700.00000, 2978.65, -13.6152, 2929.53, -103.478, 135.019, 56.4574, 222.367, 138.247, 126.316, 41.5975, 27022.5, -123.545
4780, 0.00000, 2978.67, -13.6149, 2929.54, -103.478, 135.019, 56.4571, 222.015, 138.246, 126.127, 41.5975, 27022.4, -123.545
4780, 900.00000, 2978.69, -13.6147, 2929.54, -103.478, 135.019, 56.4569, 221.664, 138.245, 125.938, 41.5975, 27022.3, -123.545
4780, 1800.00000, 2978.69, -13.6147, 2929.54, -103.478, 135.019, 56.4569, 221.711, 138.248, 125.92, 41.5947, 27022.3, -123.545
4780, 2700.00000, 2978.69, -13.6148, 2929.55, -103.478, 135.018, 56.457, 221.759, 138.25, 125.901, 41.5919, 27022.3, -123.545
4781, 0.00000, 2978.69, -13.6148, 2929.55, -103.478, 135.018, 56.457, 221.806, 138.253, 125.882, 41.5891, 27022.3, -123.545
4781, 900.00000, 2978.69, -13.6149, 2929.55, -103.478, 135.018, 56.457, 221.854, 138.255, 125.864, 41.5862, 27022.3, -123.545
4781, 1800.00000, 2978.71, -13.6147, 2929.56, -103.477, 135.018, 56.4568, 221.52, 138.255, 125.689, 41.5856, 27022.2, -123.545
4781, 2700.00000, 2978.73, -13.6144, 2929.56, -103.477, 135.018, 56.4565, 221.185, 138.254, 125.514, 41.585, 27022.1, -123.545
4782, 0.00000, 2978.76, -13.6142, 2929.56, -103.477, 135.018, 56.4563, 220.851, 138.253, 125.34, 41.5843, 27022.1, -123.546
4782, 900.00000, 2978.78, -13.614, 2929.57, -103.477, 135.018, 56.456, 220.517, 138.253, 125.165, 41.5837, 27022, -123.546
4782, 1800.00000, 2978.67, -13.6151, 2929.55, -103.478, 135.019, 56.4572, 222.119, 138.259, 125.964, 41.5814, 27022.3, -123.545
4782, 2700.00000, 2978.56, -13.6163, 2929.53, -103.479, 135.02, 56.4584, 223.721, 138.265, 126.762, 41.5792, 27022.7, -123.544
4783, 0.00000, 2978.54, -13.6156, 2929.52, -103.478, 135.02, 56.458, 223.933, 138.084, 126.277, 41.1753, 27022.7, -123.544
4783, 900.00000, 2978.45, -13.6162, 2929.5, -103.478, 135.022, 56.4587, 225.154, 138.04, 126.725, 41.0649, 27022.9, -123.544
4783, 1800.00000, 2978.51, -13.6134, 2929.5, -103.474, 135.021, 56.4568, 224.192, 137.589, 124.615, 40.0344, 27022.5, -123.546
4783, 2700.00000, 2978.42, -13.6137, 2929.48, -103.474, 135.022, 56.4574, 225.589, 137.449, 124.761, 39.6915, 27022.8, -123.546
4784, 0.00000, 2978.32, -13.6141, 2929.46, -103.474, 135.024, 56.458, 226.986, 137.311, 124.912, 39.3495, 27023, -123.545
4784, 900.00000, 2978.22, -13.6144, 2929.44, -103.474, 135.025, 56.4586, 228.385, 137.175, 125.067, 39.0084, 27023.2, -123.545
4784, 1800.00000, 2978.08, -13.6155, 2929.42, -103.475, 135.026, 56.4598, 230.448, 137.099, 125.715, 38.7979, 27023.6, -123.544
4784, 2700.00000, 2977.94, -13.6165, 2929.39, -103.476, 135.027, 56.461, 232.511, 137.025, 126.363, 38.5896, 27023.9, -123.543
4785, 0.00000, 2977.79, -13.6176, 2929.37, -103.476, 135.028, 56.4623, 234.574, 136.951, 127.014, 38.3833, 27024.3, -123.542
4785, 900.00000, 2977.65, -13.6187, 2929.34, -103.477, 135.03, 56.4635, 236.636, 136.879, 127.665, 38.1791, 27024.7, -123.541
4785, 1800.00000, 2977.48, -13.6203, 2929.31, -103.479, 135.031, 56.4651, 239.106, 136.865, 128.715, 38.1099, 27025.2, -123.539
4785, 2700.00000, 2977.31, -13.6219, 2929.28, -103.48, 135.033, 56.4668, 241.575, 136.85, 129.764, 38.0417, 27025.6, -123.538
4786, 0.00000, 2977.14, -13.6236, 2929.25, -103.482, 135.034, 56.4685, 244.043, 136.836, 130.813, 37.9744, 27026.1, -123.536
4786, 900.00000, 2976.97, -13.6252, 2929.22, -103.483, 135.036, 56.4701, 246.51, 136.822, 131.863, 37.9081, 27026.6, -123.535
4786, 1800.00000, 2995.18, -13.6264, 2947.27, -103.485, 135.868, 56.4711, 250.148, 136.798, 133.632, 37.8621, 27193.4, -123.534
4786, 2700.00000, 2995.02, -13.628, 2947.24, -103.486, 135.869, 56.4727, 252.502, 136.785, 134.636, 37.8022, 27193.8, -123.533
4787, 0.00000, 2994.85, -13.6295, 2947.21, -103.488, 135.871, 56.4743, 254.861, 136.772, 135.64, 37.7433, 27194.3, -123.531
4787, 900.00000, 2994.69, -13.6311, 2947.19, -103.489, 135.872, 56.4759, 257.219, 136.759, 136.644, 37.6852, 27194.7, -123.53
4787, 1800.00000, 2994.52, -13.6329, 2947.16, -103.491, 135.874, 56.4776, 259.698, 136.78, 137.846, 37.7128, 27195.2, -123.528
4787, 2700.00000, 2994.35, -13.6347, 2947.13, -103.493, 135.875, 56.4794, 262.177, 136.8, 139.048, 37.7398, 27195.7, -123.527
4788, 0.00000, 2994.18, -13.6365, 2947.1, -103.494, 135.876, 56.4812, 264.655, 136.819, 140.25, 37.7662, 27196.2, -123.525
4788, 900.00000, 2994.01, -13.6383, 2947.07, -103.496, 135.878, 56.483, 267.132, 136.838, 141.451, 37.7919, 27196.7, -123.523
4788, 1800.00000, 2993.81, -13.6405, 2947.03, -103.498, 135.88, 56.4851, 270.045, 136.876, 142.925, 37.8593, 27197.3, -123.521
4788, 2700.00000, 2993.61, -13.6427, 2947, -103.501, 135.881, 56.4872, 272.956, 136.912, 144.399, 37.9251, 27197.9, -123.519
4789, 0.00000, 2993.41, -13.6449, 2946.97, -103.503, 135.883, 56.4893, 275.867, 136.948, 145.873, 37.9893, 27198.5, -123.517
4789, 900.00000, 2993.21, -13.6471, 2946.93, -103.505, 135.885, 56.4914, 278.776, 136.983, 147.347, 38.0519, 27199.1, -123.515
4789, 1800.00000, 2993.05, -13.6488, 2946.9, -103.507, 135.886, 56.493, 280.982, 137.003, 148.46, 38.0859, 27199.6, -123.514
4789, 2700.00000, 2992.9, -13.6504, 2946.88, -103.509, 135.887, 56.4946, 283.187, 137.022, 149.573, 38.1193, 27200, -123.512
4790, 0.00000, 2992.75, -13.652, 2946.85, -103.51, 135.889, 56.4962, 285.391, 137.041, 150.686, 38.152, 27200.5, -123.511
4790, 900.00000, 2992.6, -13.6537, 2946.82, -103.512, 135.89, 56.4978, 287.595, 137.06, 151.799, 38.1841, 27200.9, -123.509
4790, 1800.00000, 2992.46, -13.6552, 2946.79, -103.514, 135.891, 56.4992, 289.583, 137.095, 152.947, 38.2627, 27201.4, -123.508
4790, 2700.00000, 2992.32, -13.6568, 2946.76, -103.515, 135.893, 56.5007, 291.571, 137.129, 154.096, 38.3399, 27201.8, -123.507
4791, 0.00000, 2992.18, -13.6583, 2946.74, -103.517, 135.894, 56.5022, 293.557, 137.163, 155.244, 38.4158, 27202.3, -123.505
4791, 900.00000, 2992.04, -13.6599, 2946.71, -103.519, 135.895, 56.5037, 295.547, 137.196, 156.393, 38.4904, 27202.7, -123.504
4791, 1800.00000, 2991.94, -13.6611, 2946.69, -103.52, 135.896, 56.5048, 297.004, 137.232, 157.308, 38.5752, 27203, -123.503
4791, 2700.00000, 2991.84, -13.6623, 2946.67, -103.522, 135.897, 56.5059, 298.461, 137.268, 158.223, 38.6588, 27203.4, -123.502
4792, 0.00000, 2991.74, -13.6635, 2946.64, -103.523, 135.898, 56.507, 299.923, 137.303, 159.138, 38.7414, 27203.7, -123.501
4792, 900.00000, 2991.63, -13.6647, 2946.62, -103.524, 135.899, 56.5081, 301.386, 137.338, 160.054, 38.823, 27204, -123.5
4792, 1800.00000, 2991.53, -13.6662, 2946.6, -103.526, 135.9, 56.5094, 302.852, 137.425, 161.21, 39.0344, 27204.4, -123.498
4792, 2700.00000, 2991.43, -13.6678, 2946.58, -103.528, 135.901, 56.5108, 304.318, 137.511, 162.369, 39.2426, 27204.8, -123.497
4793, 0.00000, 2991.33, -13.6693, 2946.57, -103.53, 135.902, 56.5121, 305.785, 137.596, 163.53, 39.4478, 27205.1, -123.495
4793, 900.00000, 2991.23, -13.6709, 2946.55, -103.532, 135.903, 56.5134, 307.252, 137.68, 164.693, 39.6498, 27205.5, -123.494
4793, 1800.00000, 2991.21, -13.6717, 2946.54, -103.533, 135.903, 56.5139, 307.586, 137.765, 165.278, 39.8549, 27205.6, -123.493
4793, 2700.00000, 2991.19, -13.6724, 2946.54, -103.534, 135.903, 56.5145, 307.92, 137.849, 165.865, 40.0584, 27205.7, -123.493
4794, 0.00000, 2991.16, -13.6732, 2946.54, -103.535, 135.903, 56.515, 308.254, 137.933, 166.453, 40.2605, 27205.8, -123.492
4794, 900.00000, 2991.14, -13.674, 2946.54, -103.537, 135.903, 56.5156, 308.589, 138.018, 167.044, 40.4612, 27206, -123.492
4794, 1800.00000, 2991.07, -13.6764, 2946.53, -103.54, 135.903, 56.5173, 309.7, 138.272, 168.87, 41.0651, 27206.3, -123.49
4794, 2700.00000, 2991.08, -13.6774, 2946.54, -103.541, 135.903, 56.5179, 309.632, 138.428, 169.524, 41.4232, 27206.3, -123.489
4795, 0.00000, 2991.2, -13.6762, 2946.57, -103.54, 135.901, 56.5167, 307.927, 138.427, 168.666, 41.4285, 27206, -123.49
4795, 900.00000, 2991.32, -13.675, 2946.59, -103.539, 135.9, 56.5155, 306.222, 138.426, 167.808, 41.4337, 27205.6, -123.491
4795, 1800.00000, 2991.34, -13.6747, 2946.59, -103.539, 135.9, 56.5153, 305.875, 138.425, 167.628, 41.4357, 27205.6, -123.491
4795, 2700.00000, 2991.36, -13.6745, 2946.6, -103.538, 135.9, 56.515, 305.529, 138.425, 167.448, 41.4376, 27205.5, -123.492
4796, 0.00000, 2991.39, -13.6742, 2946.6, -103.538, 135.899, 56.5148, 305.183, 138.424, 167.267, 41.4396, 27205.4, -123.492
4796, 900.00000, 2991.41, -13.674, 2946.61, -103.538, 135.899, 56.5146, 304.837, 138.424, 167.087, 41.4416, 27205.3, -123.492
4796, 1800.00000, 2991.58, -13.6723, 2946.64, -103.536, 135.898, 56.5129, 302.477, 138.422, 165.909, 41.4476, 27204.8, -123.493
4796, 2700.00000, 2991.74, -13.6706, 2946.67, -103.534, 135.896, 56.5113, 300.116, 138.421, 164.731, 41.4537, 27204.4, -123.495
4797, 0.00000, 2991.9, -13.6689, 2946.7, -103.533, 135.895, 56.5096, 297.761, 138.419, 163.552, 41.4596, 27203.9, -123.497
4797, 900.00000, 2992.07, -13.6672, 2946.73, -103.531, 135.893, 56.508, 295.41, 138.417, 162.373, 41.4654, 27203.4, -123.498
4797, 1800.00000, 2992.39, -13.6638, 2946.79, -103.527, 135.89, 56.5047, 290.669, 138.411, 160.02, 41.4766, 27202.4, -123.501
4797, 2700.00000, 2992.72, -13.6604, 2946.85, -103.524, 135.887, 56.5013, 285.924, 138.405, 157.666, 41.4875, 27201.4, -123.504
4798, 0.00000, 2993.05, -13.6569, 2946.91, -103.521, 135.884, 56.498, 281.176, 138.398, 155.312, 41.4982, 27200.5, -123.507
4798, 900.00000, 2993.38, -13.6535, 2946.97, -103.517, 135.881, 56.4946, 276.424, 138.39, 152.957, 41.5086, 27199.5, -123.511
4798, 1800.00000, 2993.7, -13.6501, 2947.03, -103.514, 135.879, 56.4913, 271.785, 138.382, 150.658, 41.5189, 27198.5, -123.514
4798, 2700.00000, 2994.02, -13.6468, 2947.09, -103.51, 135.876, 56.488, 267.144, 138.373, 148.359, 41.5289, 27197.6, -123.517
4799, 0.00000, 2994.34, -13.6434, 2947.15, -103.507, 135.873, 56.4847, 262.498, 138.363, 146.059, 41.5387, 27196.6, -123.52
4799, 900.00000, 2994.66, -13.64, 2947.2, -103.503, 135.87, 56.4814, 257.849, 138.353, 143.759, 41.5482, 27195.7, -123.523
4799, 1800.00000, 2994.9, -13.6375, 2947.25, -103.501, 135.868, 56.479, 254.377, 138.343, 142.062, 41.5571, 27195, -123.525
4799, 2700.00000, 2995.14, -13.6349, 2947.29, -103.498, 135.866, 56.4765, 250.903, 138.333, 140.364, 41.5659, 27194.3, -123.527
4800, 0.00000, 2995.38, -13.6324, 2947.33, -103.496, 135.864, 56.474, 247.427, 138.322, 138.667, 41.5746, 27193.6, -123.53
