hour,t(sec),V1,VAngle1,V2,VAngle2,V3,VAngle3,I1,IAngle1,I2,IAngle2,I3,IAngle3
0, 900.00000, 2461.8, -0.0014879, 2461.81, -120.001, 2461.81, 119.999, 476.633, -18.3375, 311.519, -134.564, 391.222, 105.124
0, 1800.00000, 2461.8, -0.00147783, 2461.81, -120.001, 2461.81, 119.999, 473.104, -18.2273, 309.304, -134.424, 388.374, 105.241
0, 2700.00000, 2461.8, -0.00146773, 2461.81, -120.001, 2461.81, 119.999, 469.566, -18.1152, 307.09, -134.281, 385.518, 105.361
1, 0.00000, 2461.8, -0.00145763, 2461.81, -120.001, 2461.81, 119.999, 466.031, -18.0017, 304.878, -134.137, 382.662, 105.482
1, 900.00000, 2461.8, -0.00144727, 2461.81, -120.001, 2461.81, 119.999, 462.408, -17.8841, 302.668, -133.991, 379.802, 105.604
1, 1800.00000, 2461.8, -0.00144204, 2461.81, -120.001, 2461.81, 119.999, 460.574, -17.8206, 301.564, -133.92, 378.149, 105.674
1, 2700.00000, 2461.8, -0.0014368, 2461.81, -120.001, 2461.81, 119.999, 458.731, -17.7563, 300.461, -133.849, 376.493, 105.744
2, 0.00000, 2461.8, -0.00143154, 2461.81, -120.001, 2461.81, 119.999, 456.888, -17.6915, 299.358, -133.777, 374.837, 105.815
2, 900.00000, 2461.8, -0.00142629, 2461.81, -120.001, 2461.81, 119.999, 455.046, -17.6263, 298.256, -133.705, 373.181, 105.887
2, 1800.00000, 2461.8, -0.0014242, 2461.81, -120.001, 2461.81, 119.999, 454.312, -17.6006, 297.818, -133.676, 372.507, 105.916
2, 2700.00000, 2461.8, -0.00142211, 2461.81, -120.001, 2461.81, 119.999, 453.581, -17.575, 297.381, -133.648, 371.835, 105.945
3, 0.00000, 2461.8, -0.00142003, 2461.81, -120.001, 2461.81, 119.999, 452.851, -17.5492, 296.943, -133.619, 371.164, 105.974
3, 900.00000, 2461.8, -0.00141794, 2461.81, -120.001, 2461.81, 119.999, 452.12, -17.5234, 296.506, -133.591, 370.492, 106.004
3, 1800.00000, 2461.8, -0.00142406, 2461.81, -120.001, 2461.81, 119.999, 454.247, -17.5923, 297.905, -133.692, 371.956, 105.934
3, 2700.00000, 2461.8, -0.00143021, 2461.81, -120.001, 2461.81, 119.999, 456.384, -17.6609, 299.306, -133.793, 373.424, 105.865
4, 0.00000, 2461.8, -0.00143636, 2461.81, -120.001, 2461.81, 119.999, 458.521, -17.729, 300.708, -133.892, 374.894, 105.797
4, 900.00000, 2461.8, -0.00144251, 2461.81, -120.001, 2461.81, 119.999, 460.658, -17.7965, 302.11, -133.991, 376.363, 105.728
4, 1800.00000, 2461.8, -0.00146011, 2461.81, -120.001, 2461.81, 119.999, 466.79, -17.9889, 306.1, -134.264, 380.77, 105.53
4, 2700.00000, 2461.8, -0.00147774, 2461.81, -120.001, 2461.81, 119.999, 472.94, -18.1775, 310.096, -134.53, 385.186, 105.335
5, 0.00000, 2461.8, -0.00149537, 2461.81, -120.001, 2461.81, 119.999, 479.095, -18.3618, 314.099, -134.79, 389.607, 105.145
5, 900.00000, 2461.8, -0.00151299, 2461.81, -120.001, 2461.81, 119.999, 485.254, -18.5421, 318.107, -135.043, 394.032, 104.959
5, 1800.00000, 2461.8, -0.00154724, 2461.81, -120.001, 2461.81, 119.999, 497.224, -18.8752, 325.918, -135.523, 402.346, 104.616
5, 2700.00000, 2461.8, -0.00158114, 2461.81, -120.001, 2461.81, 119.999, 509.096, -19.1918, 333.751, -135.982, 410.662, 104.287
6, 0.00000, 2461.8, -0.00161504, 2461.81, -120.001, 2461.8, 119.999, 520.99, -19.4964, 341.601, -136.422, 418.992, 103.97
6, 900.00000, 2461.8, -0.00164892, 2461.81, -120.001, 2461.8, 119.999, 532.899, -19.7895, 349.467, -136.843, 427.427, 103.661
6, 1800.00000, 2461.8, -0.00166579, 2461.81, -120.001, 2461.8, 119.999, 538.831, -19.9301, 353.433, -137.05, 431.468, 103.515
6, 2700.00000, 2476.81, -0.00169232, 2476.82, -120.001, 2476.81, 119.999, 544.244, -19.9732, 357.019, -137.126, 434.995, 103.484
7, 0.00000, 2476.81, -0.00170925, 2476.82, -120.001, 2476.81, 119.999, 550.169, -20.1094, 360.988, -137.327, 439.045, 103.342
7, 900.00000, 2476.8, -0.00172626, 2476.82, -120.001, 2476.81, 119.999, 556.127, -20.2439, 364.962, -137.523, 443.103, 103.202
7, 1800.00000, 2476.81, -0.00166471, 2476.82, -120.001, 2476.81, 119.999, 537.881, -20.6923, 356.227, -137.911, 434.145, 102.909
7, 2700.00000, 2476.81, -0.00163359, 2476.82, -120.001, 2476.81, 119.999, 528.782, -20.9632, 350.944, -138.176, 428.762, 102.708
8, 0.00000, 2476.81, -0.00160542, 2476.82, -120.001, 2476.81, 119.999, 520.523, -21.2067, 346.63, -138.402, 424.323, 102.541
8, 900.00000, 2476.81, -0.00157771, 2476.82, -120.001, 2476.81, 119.999, 512.442, -21.4638, 342.302, -138.634, 419.915, 102.369
8, 1800.00000, 2476.81, -0.00155409, 2476.82, -120.001, 2476.81, 119.999, 505.359, -21.631, 338.427, -138.773, 415.755, 102.272
8, 2700.00000, 2476.81, -0.00153051, 2476.82, -120.001, 2476.81, 119.999, 498.295, -21.8046, 334.552, -138.916, 411.599, 102.173
9, 0.00000, 2476.81, -0.00150695, 2476.82, -120.001, 2476.81, 119.999, 491.25, -21.9848, 330.679, -139.063, 407.446, 102.072
9, 900.00000, 2476.81, -0.00148348, 2476.82, -120.001, 2476.81, 119.999, 484.251, -22.1733, 326.817, -139.216, 402.566, 101.826
9, 1800.00000, 2476.81, -0.00147447, 2476.82, -120.001, 2476.81, 119.999, 481.615, -22.2618, 325.607, -139.292, 401.126, 101.777
9, 2700.00000, 2476.81, -0.00146545, 2476.82, -120.001, 2476.81, 119.999, 478.98, -22.3515, 324.399, -139.369, 399.679, 101.728
10, 0.00000, 2476.81, -0.00145644, 2476.82, -120.001, 2476.81, 119.999, 476.348, -22.4425, 323.192, -139.446, 398.233, 101.679
10, 900.00000, 2476.81, -0.00144743, 2476.82, -120.001, 2476.81, 119.999, 473.72, -22.5347, 321.985, -139.524, 396.787, 101.629
10, 1800.00000, 2476.81, -0.00144092, 2476.82, -120.001, 2476.81, 119.999, 471.624, -22.5455, 320.679, -139.528, 395.191, 101.634
10, 2700.00000, 2476.81, -0.0014344, 2476.82, -120.001, 2476.81, 119.999, 469.53, -22.5565, 319.371, -139.531, 393.596, 101.639
11, 0.00000, 2476.81, -0.00142789, 2476.82, -120.001, 2476.81, 119.999, 467.435, -22.5677, 318.063, -139.535, 392.002, 101.644
11, 900.00000, 2476.81, -0.00142137, 2476.82, -120.001, 2476.81, 119.999, 465.341, -22.579, 316.755, -139.539, 390.407, 101.649
11, 1800.00000, 2476.81, -0.00141738, 2476.82, -120.001, 2476.81, 119.999, 463.968, -22.5596, 315.965, -139.515, 389.253, 101.677
11, 2700.00000, 2476.81, -0.00141339, 2476.82, -120.001, 2476.82, 119.999, 462.596, -22.5401, 315.174, -139.491, 388.099, 101.705
12, 0.00000, 2476.81, -0.0014094, 2476.82, -120.001, 2476.82, 119.999, 461.224, -22.5206, 314.384, -139.467, 386.946, 101.734
12, 900.00000, 2476.81, -0.0014054, 2476.82, -120.001, 2476.82, 119.999, 459.852, -22.501, 313.593, -139.443, 385.792, 101.762
12, 1800.00000, 2476.81, -0.00140891, 2476.82, -120.001, 2476.82, 119.999, 460.759, -22.4295, 313.646, -139.399, 385.625, 101.8
12, 2700.00000, 2476.81, -0.00141242, 2476.82, -120.001, 2476.82, 119.999, 461.671, -22.3586, 313.697, -139.356, 385.462, 101.838
13, 0.00000, 2476.81, -0.00141594, 2476.82, -120.001, 2476.82, 119.999, 462.584, -22.288, 313.748, -139.312, 385.298, 101.876
13, 900.00000, 2476.81, -0.00141945, 2476.82, -120.001, 2476.82, 119.999, 463.499, -22.2178, 313.799, -139.269, 385.135, 101.915
13, 1800.00000, 2476.81, -0.0014289, 2476.82, -120.001, 2476.82, 119.999, 466.234, -22.1135, 315.032, -139.195, 386.318, 101.97
13, 2700.00000, 2476.81, -0.00143835, 2476.82, -120.001, 2476.82, 119.999, 468.977, -22.011, 316.266, -139.122, 387.505, 102.025
14, 0.00000, 2476.81, -0.00144782, 2476.82, -120.001, 2476.82, 119.999, 471.724, -21.9099, 317.501, -139.05, 388.692, 102.08
14, 900.00000, 2476.81, -0.00145728, 2476.82, -120.001, 2476.82, 119.999, 474.475, -21.8104, 318.736, -138.978, 389.879, 102.134
14, 1800.00000, 2476.81, -0.00148034, 2476.82, -120.001, 2476.82, 119.999, 481.298, -21.607, 322.573, -138.788, 394.219, 102.261
14, 2700.00000, 2476.81, -0.00150345, 2476.82, -120.001, 2476.82, 119.999, 488.146, -21.411, 326.413, -138.602, 398.568, 102.385
15, 0.00000, 2476.81, -0.00152658, 2476.82, -120.001, 2476.82, 119.999, 495.012, -21.222, 330.257, -138.421, 402.923, 102.506
15, 900.00000, 2476.81, -0.00154973, 2476.82, -120.001, 2476.82, 119.999, 501.896, -21.0395, 334.104, -138.244, 407.282, 102.625
15, 1800.00000, 2476.81, -0.00159262, 2476.82, -120.001, 2476.81, 119.999, 515.374, -20.9212, 341.845, -138.168, 416.342, 102.65
15, 2700.00000, 2476.81, -0.00165284, 2476.82, -120.001, 2476.81, 119.999, 534.024, -20.6867, 350.662, -138.032, 426.504, 102.722
16, 0.00000, 2476.8, -0.00168958, 2476.82, -120.001, 2476.81, 119.999, 545.702, -20.6327, 358.57, -137.969, 435.734, 102.742
16, 900.00000, 2476.8, -0.00174971, 2476.82, -120.001, 2476.81, 119.999, 564.371, -20.4308, 370.23, -137.765, 448.822, 102.871
16, 1800.00000, 2476.8, -0.0017904, 2476.82, -120.001, 2476.81, 119.999, 578.737, -20.7561, 379.371, -138.166, 460.327, 102.522
16, 2700.00000, 2476.8, -0.00183108, 2476.81, -120.001, 2476.81, 119.999, 593.131, -21.0686, 388.526, -138.55, 471.851, 102.187
17, 0.00000, 2476.8, -0.00187615, 2476.81, -120.001, 2476.81, 119.998, 608.628, -21.2858, 397.622, -138.917, 483.392, 101.87
17, 900.00000, 2476.8, -0.00191665, 2476.81, -120.001, 2476.81, 119.998, 623.011, -21.5753, 406.81, -139.267, 495.803, 101.672
17, 1800.00000, 2491.81, -0.00193661, 2491.82, -120.001, 2491.82, 119.998, 625.609, -21.5531, 408.38, -139.227, 497.999, 101.7
17, 2700.00000, 2491.81, -0.00194555, 2491.82, -120.001, 2491.82, 119.998, 628.778, -21.6171, 410.378, -139.3, 500.673, 101.631
18, 0.00000, 2491.81, -0.00195461, 2491.82, -120.001, 2491.82, 119.998, 631.988, -21.6814, 412.379, -139.373, 503.369, 101.562
18, 900.00000, 2491.81, -0.00196366, 2491.82, -120.001, 2491.82, 119.998, 635.199, -21.7453, 414.382, -139.445, 506.066, 101.495
18, 1800.00000, 2491.81, -0.00195574, 2491.82, -120.001, 2491.82, 119.998, 632.415, -21.6952, 412.501, -139.371, 504.151, 101.546
18, 2700.00000, 2491.81, -0.00194773, 2491.82, -120.001, 2491.82, 119.998, 629.599, -21.644, 410.618, -139.297, 502.22, 101.599
19, 0.00000, 2491.81, -0.00193971, 2491.82, -120.001, 2491.82, 119.998, 626.783, -21.5924, 408.737, -139.222, 500.29, 101.652
19, 900.00000, 2491.81, -0.0019317, 2491.82, -120.001, 2491.82, 119.998, 623.968, -21.5405, 406.856, -139.147, 498.36, 101.705
19, 1800.00000, 2491.81, -0.00191984, 2491.82, -120.001, 2491.82, 119.998, 619.796, -21.4611, 404.105, -139.037, 495.369, 101.787
19, 2700.00000, 2491.81, -0.00190796, 2491.82, -120.001, 2491.82, 119.998, 615.619, -21.3807, 401.355, -138.926, 492.375, 101.87
20, 0.00000, 2491.81, -0.00189607, 2491.82, -120.001, 2491.82, 119.998, 611.443, -21.2994, 398.606, -138.813, 489.382, 101.954
20, 900.00000, 2491.81, -0.00188381, 2491.83, -120.001, 2491.82, 119.998, 607.137, -21.2147, 395.859, -138.699, 486.381, 102.039
20, 1800.00000, 2491.81, -0.00186303, 2491.83, -120.001, 2491.82, 119.998, 599.852, -21.0707, 390.335, -138.643, 481.059, 102.189
20, 2700.00000, 2491.81, -0.00184181, 2491.83, -120.001, 2491.82, 119.998, 592.406, -20.9175, 385.6, -138.442, 475.682, 102.346
21, 0.00000, 2491.81, -0.00182105, 2491.83, -120.001, 2491.82, 119.999, 585.129, -20.7638, 380.86, -138.237, 470.212, 102.508
21, 900.00000, 2491.81, -0.00180036, 2491.83, -120.001, 2491.82, 119.999, 577.88, -20.6075, 376.129, -138.027, 464.87, 102.67
21, 1800.00000, 2491.81, -0.00176696, 2491.83, -120.001, 2491.82, 119.999, 566.662, -20.4747, 369.564, -137.729, 456.443, 102.783
21, 2700.00000, 2491.82, -0.00173778, 2491.83, -120.001, 2491.82, 119.999, 556.465, -20.2434, 362.938, -137.417, 448.854, 103.024
22, 0.00000, 2491.82, -0.00170856, 2491.83, -120.001, 2491.83, 119.999, 546.266, -20.0046, 356.326, -137.095, 441.262, 103.272
22, 900.00000, 2491.82, -0.00167904, 2491.83, -120.001, 2491.83, 119.999, 535.98, -19.7561, 349.726, -136.762, 433.677, 103.528
22, 1800.00000, 2491.82, -0.00164936, 2491.83, -120.001, 2491.83, 119.999, 525.653, -19.4973, 343.052, -136.414, 425.902, 103.799
22, 2700.00000, 2491.82, -0.00161577, 2491.83, -120.001, 2491.83, 119.999, 514.44, -19.3385, 335.81, -136.227, 418.179, 104.074
23, 0.00000, 2491.82, -0.00158613, 2491.83, -120.001, 2491.83, 119.999, 504.158, -19.0646, 329.174, -135.858, 410.42, 104.364
23, 900.00000, 2491.82, -0.00155656, 2491.83, -120.001, 2491.83, 119.999, 493.917, -18.7829, 322.549, -135.476, 401.995, 104.521
23, 1800.00000, 2476.81, -0.00152832, 2476.82, -120.001, 2476.82, 119.999, 487.635, -18.693, 318.54, -135.355, 397.243, 104.608
23, 2700.00000, 2476.81, -0.00150897, 2476.82, -120.001, 2476.82, 119.999, 480.903, -18.4979, 314.201, -135.092, 392.113, 104.813
24, 0.00000, 2476.81, -0.0014895, 2476.82, -120.001, 2476.82, 119.999, 474.142, -18.2969, 309.866, -134.821, 386.969, 105.025
