hour,t(sec),V1,VAngle1,V2,VAngle2,V3,VAngle3,V4,VAngle4,I1,IAngle1,I2,IAngle2,I3,IAngle3,I4,IAngle4
0, 900.00000, 2371.02, -2.82143, 2437.2, -121.646, 2398.2, 118.114, 0, 0, 0.0000137366, -92.5074, 0.0000140002, 148.333, 0.0000139044, 27.8288, 0, 0
0, 1800.00000, 2372.01, -2.80506, 2437.62, -121.638, 2398.97, 118.124, 0, 0, 0.000013742, -92.4935, 0.0000140033, 148.341, 0.0000139086, 27.8416, 0, 0
0, 2700.00000, 2372.99, -2.7886, 2438.04, -121.63, 2399.75, 118.135, 0, 0, 0.0000137474, -92.4796, 0.0000140063, 148.349, 0.0000139127, 27.8545, 0, 0
1, 0.00000, 2373.98, -2.77215, 2438.45, -121.622, 2400.53, 118.145, 0, 0, 0.0000137528, -92.4657, 0.0000140094, 148.357, 0.0000139169, 27.8674, 0, 0
1, 900.00000, 2374.98, -2.75527, 2438.86, -121.613, 2401.31, 118.156, 0, 0, 0.0000137583, -92.4514, 0.0000140124, 148.366, 0.000013921, 27.8802, 0, 0
1, 1800.00000, 2375.47, -2.74657, 2439.06, -121.61, 2401.79, 118.163, 0, 0, 0.0000137611, -92.4444, 0.0000140139, 148.37, 0.0000139235, 27.8879, 0, 0
1, 2700.00000, 2375.95, -2.73779, 2439.25, -121.607, 2402.27, 118.169, 0, 0, 0.0000137639, -92.4373, 0.0000140154, 148.373, 0.0000139259, 27.8956, 0, 0
2, 0.00000, 2376.44, -2.72901, 2439.45, -121.604, 2402.75, 118.176, 0, 0, 0.0000137667, -92.4301, 0.0000140168, 148.377, 0.0000139284, 27.9033, 0, 0
2, 900.00000, 2376.92, -2.72023, 2439.64, -121.601, 2403.23, 118.183, 0, 0, 0.0000137695, -92.423, 0.0000140183, 148.381, 0.0000139308, 27.911, 0, 0
2, 1800.00000, 2377.11, -2.71683, 2439.72, -121.6, 2403.42, 118.186, 0, 0, 0.0000137706, -92.4202, 0.0000140189, 148.383, 0.0000139318, 27.9141, 0, 0
2, 2700.00000, 2377.3, -2.71345, 2439.81, -121.598, 2403.61, 118.189, 0, 0, 0.0000137717, -92.4175, 0.0000140195, 148.384, 0.0000139328, 27.9171, 0, 0
3, 0.00000, 2377.49, -2.71008, 2439.89, -121.597, 2403.8, 118.191, 0, 0, 0.0000137728, -92.4147, 0.0000140201, 148.386, 0.0000139337, 27.9202, 0, 0
3, 900.00000, 2377.67, -2.70671, 2439.97, -121.596, 2403.99, 118.194, 0, 0, 0.0000137739, -92.412, 0.0000140207, 148.387, 0.0000139347, 27.9233, 0, 0
3, 1800.00000, 2377.03, -2.71655, 2439.69, -121.602, 2403.62, 118.19, 0, 0, 0.0000137705, -92.4207, 0.0000140186, 148.382, 0.0000139326, 27.9169, 0, 0
3, 2700.00000, 2376.39, -2.72647, 2439.41, -121.609, 2403.25, 118.185, 0, 0, 0.0000137672, -92.4295, 0.0000140166, 148.376, 0.0000139305, 27.9105, 0, 0
4, 0.00000, 2375.74, -2.73638, 2439.13, -121.615, 2402.87, 118.181, 0, 0, 0.0000137638, -92.4383, 0.0000140146, 148.371, 0.0000139283, 27.904, 0, 0
4, 900.00000, 2375.1, -2.7463, 2438.85, -121.621, 2402.5, 118.176, 0, 0, 0.0000137605, -92.447, 0.0000140126, 148.365, 0.0000139262, 27.8976, 0, 0
4, 1800.00000, 2373.29, -2.77462, 2438.06, -121.638, 2401.36, 118.162, 0, 0, 0.0000137509, -92.4719, 0.0000140069, 148.35, 0.0000139198, 27.8782, 0, 0
4, 2700.00000, 2371.48, -2.80304, 2437.27, -121.656, 2400.22, 118.147, 0, 0, 0.0000137413, -92.4968, 0.0000140013, 148.334, 0.0000139134, 27.8588, 0, 0
5, 0.00000, 2369.66, -2.83146, 2436.49, -121.673, 2399.08, 118.133, 0, 0, 0.0000137318, -92.5218, 0.0000139956, 148.319, 0.0000139071, 27.8393, 0, 0
5, 900.00000, 2367.85, -2.85988, 2435.7, -121.69, 2397.95, 118.118, 0, 0, 0.0000137222, -92.5467, 0.0000139899, 148.303, 0.0000139007, 27.8199, 0, 0
5, 1800.00000, 2364.3, -2.91443, 2434.14, -121.725, 2395.87, 118.093, 0, 0, 0.0000137036, -92.595, 0.0000139787, 148.272, 0.0000138888, 27.7839, 0, 0
5, 2700.00000, 2360.77, -2.96841, 2432.56, -121.761, 2393.8, 118.067, 0, 0, 0.0000136852, -92.643, 0.0000139675, 148.242, 0.000013877, 27.7479, 0, 0
6, 0.00000, 2357.24, -3.02246, 2430.99, -121.796, 2391.72, 118.041, 0, 0, 0.0000136668, -92.691, 0.0000139563, 148.211, 0.0000138651, 27.7119, 0, 0
6, 900.00000, 2353.72, -3.07662, 2429.41, -121.831, 2389.63, 118.014, 0, 0, 0.0000136483, -92.7391, 0.0000139451, 148.18, 0.0000138532, 27.6756, 0, 0
6, 1800.00000, 2351.94, -3.10348, 2428.61, -121.849, 2388.64, 118.002, 0, 0, 0.000013639, -92.7631, 0.0000139394, 148.165, 0.0000138474, 27.6583, 0, 0
6, 2700.00000, 2365.53, -3.1136, 2443.1, -121.858, 2403, 118.001, 0, 0, 0.0000137186, -92.7727, 0.0000140222, 148.158, 0.0000139304, 27.6539, 0, 0
7, 0.00000, 2363.75, -3.14026, 2442.3, -121.876, 2402.01, 117.989, 0, 0, 0.0000137094, -92.7966, 0.0000140165, 148.143, 0.0000139247, 27.6366, 0, 0
7, 900.00000, 2361.96, -3.16713, 2441.5, -121.894, 2401.02, 117.976, 0, 0, 0.0000137001, -92.8206, 0.0000140108, 148.127, 0.0000139189, 27.6193, 0, 0
7, 1800.00000, 2366.67, -2.97024, 2439.87, -121.844, 2403.36, 117.987, 0, 0, 0.000013722, -92.6665, 0.0000140128, 148.177, 0.0000139267, 27.6704, 0, 0
7, 2700.00000, 2368.66, -2.8852, 2439.25, -121.82, 2404.38, 117.995, 0, 0, 0.0000137313, -92.599, 0.0000140139, 148.201, 0.0000139302, 27.6958, 0, 0
8, 0.00000, 2370.62, -2.8015, 2438.57, -121.798, 2405.38, 118.002, 0, 0, 0.0000137404, -92.5331, 0.0000140147, 148.223, 0.0000139336, 27.7192, 0, 0
8, 900.00000, 2372.53, -2.71884, 2437.93, -121.776, 2406.37, 118.009, 0, 0, 0.0000137493, -92.4678, 0.0000140156, 148.246, 0.0000139369, 27.7425, 0, 0
8, 1800.00000, 2374.25, -2.65285, 2437.58, -121.757, 2407.35, 118.017, 0, 0, 0.0000137576, -92.4154, 0.0000140173, 148.265, 0.0000139406, 27.7637, 0, 0
8, 2700.00000, 2375.97, -2.58699, 2437.24, -121.739, 2408.33, 118.026, 0, 0, 0.0000137658, -92.3631, 0.0000140189, 148.284, 0.0000139444, 27.7848, 0, 0
9, 0.00000, 2377.67, -2.52124, 2436.91, -121.72, 2409.31, 118.034, 0, 0, 0.0000137741, -92.3109, 0.0000140206, 148.303, 0.0000139482, 27.8059, 0, 0
9, 900.00000, 2379.15, -2.46128, 2436.91, -121.703, 2410.09, 118.062, 0, 0, 0.000013782, -92.2601, 0.0000140228, 148.321, 0.0000139511, 27.8405, 0, 0
9, 1800.00000, 2379.8, -2.43195, 2436.63, -121.698, 2410.51, 118.064, 0, 0, 0.0000137851, -92.2375, 0.0000140229, 148.328, 0.0000139526, 27.8487, 0, 0
9, 2700.00000, 2380.45, -2.40259, 2436.35, -121.692, 2410.95, 118.067, 0, 0, 0.0000137882, -92.2149, 0.000014023, 148.334, 0.000013954, 27.857, 0, 0
10, 0.00000, 2381.09, -2.37325, 2436.07, -121.686, 2411.38, 118.07, 0, 0, 0.0000137913, -92.1924, 0.0000140231, 148.341, 0.0000139554, 27.8652, 0, 0
10, 900.00000, 2381.74, -2.34393, 2435.79, -121.681, 2411.81, 118.072, 0, 0, 0.0000137944, -92.1698, 0.0000140232, 148.347, 0.0000139569, 27.8735, 0, 0
10, 1800.00000, 2382.23, -2.33074, 2435.86, -121.676, 2412.19, 118.077, 0, 0, 0.000013797, -92.1592, 0.0000140242, 148.352, 0.0000139587, 27.8803, 0, 0
10, 2700.00000, 2382.72, -2.31757, 2435.93, -121.672, 2412.57, 118.082, 0, 0, 0.0000137996, -92.1485, 0.0000140253, 148.357, 0.0000139605, 27.8871, 0, 0
11, 0.00000, 2383.21, -2.30441, 2436, -121.668, 2412.95, 118.086, 0, 0, 0.0000138022, -92.1379, 0.0000140263, 148.361, 0.0000139623, 27.894, 0, 0
11, 900.00000, 2383.7, -2.29125, 2436.08, -121.663, 2413.32, 118.091, 0, 0, 0.0000138048, -92.1273, 0.0000140274, 148.366, 0.000013964, 27.9008, 0, 0
11, 1800.00000, 2384.05, -2.28348, 2436.17, -121.661, 2413.66, 118.095, 0, 0, 0.0000138067, -92.1211, 0.0000140283, 148.369, 0.0000139657, 27.9061, 0, 0
11, 2700.00000, 2384.4, -2.27572, 2436.26, -121.659, 2413.99, 118.099, 0, 0, 0.0000138087, -92.115, 0.0000140292, 148.372, 0.0000139673, 27.9113, 0, 0
12, 0.00000, 2384.75, -2.26796, 2436.36, -121.657, 2414.33, 118.104, 0, 0, 0.0000138106, -92.1089, 0.0000140301, 148.374, 0.0000139689, 27.9166, 0, 0
12, 900.00000, 2385.09, -2.2602, 2436.45, -121.655, 2414.66, 118.108, 0, 0, 0.0000138126, -92.1027, 0.000014031, 148.377, 0.0000139706, 27.9218, 0, 0
12, 1800.00000, 2384.84, -2.27569, 2436.81, -121.655, 2414.65, 118.114, 0, 0, 0.0000138118, -92.1137, 0.0000140319, 148.377, 0.0000139711, 27.9237, 0, 0
12, 2700.00000, 2384.58, -2.29122, 2437.18, -121.655, 2414.63, 118.121, 0, 0, 0.0000138109, -92.1248, 0.0000140327, 148.377, 0.0000139716, 27.9255, 0, 0
13, 0.00000, 2384.32, -2.30676, 2437.54, -121.655, 2414.61, 118.127, 0, 0, 0.00001381, -92.1358, 0.0000140336, 148.377, 0.0000139721, 27.9273, 0, 0
13, 900.00000, 2384.06, -2.32231, 2437.91, -121.655, 2414.59, 118.133, 0, 0, 0.0000138092, -92.1469, 0.0000140344, 148.377, 0.0000139725, 27.9292, 0, 0
13, 1800.00000, 2383.38, -2.35194, 2438.22, -121.661, 2414.28, 118.135, 0, 0, 0.0000138061, -92.1696, 0.0000140344, 148.371, 0.0000139717, 27.924, 0, 0
13, 2700.00000, 2382.7, -2.38162, 2438.54, -121.667, 2413.96, 118.136, 0, 0, 0.0000138031, -92.1924, 0.0000140344, 148.366, 0.0000139708, 27.9187, 0, 0
14, 0.00000, 2382.02, -2.41131, 2438.85, -121.673, 2413.65, 118.137, 0, 0, 0.0000138, -92.2153, 0.0000140343, 148.36, 0.0000139699, 27.9135, 0, 0
14, 900.00000, 2381.33, -2.44103, 2439.17, -121.678, 2413.33, 118.139, 0, 0, 0.0000137969, -92.2381, 0.0000140343, 148.354, 0.0000139691, 27.9083, 0, 0
14, 1800.00000, 2379.79, -2.50479, 2439.56, -121.695, 2412.34, 118.128, 0, 0, 0.0000137894, -92.2885, 0.0000140331, 148.336, 0.0000139653, 27.8862, 0, 0
14, 2700.00000, 2378.24, -2.5687, 2439.95, -121.712, 2411.34, 118.118, 0, 0, 0.0000137818, -92.339, 0.0000140319, 148.318, 0.0000139616, 27.8642, 0, 0
15, 0.00000, 2376.68, -2.63271, 2440.35, -121.729, 2410.34, 118.108, 0, 0, 0.0000137742, -92.3895, 0.0000140307, 148.299, 0.0000139578, 27.8421, 0, 0
15, 900.00000, 2375.12, -2.69682, 2440.74, -121.746, 2409.34, 118.097, 0, 0, 0.0000137666, -92.4401, 0.0000140295, 148.281, 0.000013954, 27.8201, 0, 0
15, 1800.00000, 2371.73, -2.80474, 2440.69, -121.781, 2407.07, 118.071, 0, 0, 0.0000137493, -92.527, 0.0000140237, 148.245, 0.0000139439, 27.7741, 0, 0
15, 2700.00000, 2366.9, -2.97413, 2441.79, -121.817, 2404.23, 118.062, 0, 0, 0.000013726, -92.6572, 0.0000140198, 148.208, 0.0000139329, 27.7295, 0, 0
16, 0.00000, 2364.05, -3.05604, 2441.1, -121.856, 2402.17, 118.022, 0, 0, 0.0000137109, -92.7268, 0.0000140127, 148.169, 0.0000139227, 27.6786, 0, 0
16, 900.00000, 2359.47, -3.20874, 2440.77, -121.917, 2399.2, 117.973, 0, 0, 0.0000136875, -92.8533, 0.0000140039, 148.107, 0.0000139091, 27.6049, 0, 0
16, 1800.00000, 2355.47, -3.27362, 2439.01, -121.951, 2396.17, 117.932, 0, 0, 0.0000136656, -92.9088, 0.0000139913, 148.073, 0.0000138928, 27.5543, 0, 0
16, 2700.00000, 2351.46, -3.33861, 2437.25, -121.985, 2393.13, 117.891, 0, 0, 0.0000136437, -92.9643, 0.0000139787, 148.04, 0.0000138764, 27.5036, 0, 0
17, 0.00000, 2347.44, -3.42715, 2435.85, -122.014, 2389.79, 117.854, 0, 0, 0.0000136217, -93.0362, 0.0000139667, 148.008, 0.0000138596, 27.4535, 0, 0
17, 900.00000, 2343.67, -3.48676, 2433.75, -122.046, 2386.88, 117.792, 0, 0, 0.0000136001, -93.0905, 0.0000139535, 147.975, 0.0000138437, 27.3886, 0, 0
17, 1800.00000, 2358.21, -3.4823, 2448.68, -122.042, 2401.49, 117.794, 0, 0, 0.0000136842, -93.0862, 0.0000140393, 147.978, 0.0000139285, 27.3911, 0, 0
17, 2700.00000, 2357.34, -3.49656, 2448.3, -122.049, 2400.76, 117.784, 0, 0, 0.0000136794, -93.0982, 0.0000140366, 147.971, 0.0000139247, 27.3792, 0, 0
18, 0.00000, 2356.47, -3.51114, 2447.93, -122.056, 2400.03, 117.774, 0, 0, 0.0000136745, -93.1104, 0.0000140339, 147.963, 0.0000139208, 27.3673, 0, 0
18, 900.00000, 2355.59, -3.52572, 2447.56, -122.062, 2399.3, 117.764, 0, 0, 0.0000136696, -93.1226, 0.0000140312, 147.956, 0.0000139169, 27.3554, 0, 0
18, 1800.00000, 2356.42, -3.51348, 2447.94, -122.054, 2399.76, 117.769, 0, 0, 0.0000136739, -93.1116, 0.0000140338, 147.964, 0.0000139196, 27.3634, 0, 0
18, 2700.00000, 2357.27, -3.50097, 2448.32, -122.045, 2400.22, 117.775, 0, 0, 0.0000136783, -93.1004, 0.0000140365, 147.971, 0.0000139223, 27.3715, 0, 0
19, 0.00000, 2358.11, -3.48847, 2448.7, -122.037, 2400.69, 117.78, 0, 0, 0.0000136827, -93.0892, 0.0000140392, 147.978, 0.000013925, 27.3796, 0, 0
19, 900.00000, 2358.96, -3.47597, 2449.08, -122.028, 2401.15, 117.786, 0, 0, 0.0000136871, -93.078, 0.0000140419, 147.985, 0.0000139278, 27.3878, 0, 0
19, 1800.00000, 2360.19, -3.45733, 2449.63, -122.016, 2401.89, 117.795, 0, 0, 0.0000136935, -93.0615, 0.0000140458, 147.996, 0.000013932, 27.4005, 0, 0
19, 2700.00000, 2361.42, -3.43864, 2450.17, -122.005, 2402.64, 117.805, 0, 0, 0.0000137, -93.0451, 0.0000140496, 148.006, 0.0000139362, 27.4133, 0, 0
20, 0.00000, 2362.65, -3.41995, 2450.71, -121.993, 2403.38, 117.814, 0, 0, 0.0000137065, -93.0286, 0.0000140535, 148.017, 0.0000139405, 27.4261, 0, 0
20, 900.00000, 2363.91, -3.40063, 2451.24, -121.981, 2404.14, 117.823, 0, 0, 0.0000137131, -93.0117, 0.0000140573, 148.027, 0.0000139447, 27.4388, 0, 0
20, 1800.00000, 2366.37, -3.36941, 2452, -121.942, 2405.24, 117.834, 0, 0, 0.0000137248, -92.983, 0.0000140634, 148.058, 0.0000139519, 27.4599, 0, 0
20, 2700.00000, 2368.51, -3.33601, 2452.9, -121.922, 2406.61, 117.851, 0, 0, 0.0000137362, -92.954, 0.00001407, 148.076, 0.0000139596, 27.483, 0, 0
21, 0.00000, 2370.62, -3.30312, 2453.83, -121.903, 2408, 117.869, 0, 0, 0.0000137474, -92.9254, 0.0000140766, 148.094, 0.0000139673, 27.5064, 0, 0
21, 900.00000, 2372.73, -3.27053, 2454.75, -121.883, 2409.36, 117.887, 0, 0, 0.0000137586, -92.8969, 0.0000140832, 148.112, 0.0000139749, 27.5294, 0, 0
21, 1800.00000, 2375.41, -3.20738, 2456.04, -121.864, 2411.45, 117.928, 0, 0, 0.000013774, -92.8423, 0.0000140924, 148.134, 0.0000139854, 27.5755, 0, 0
21, 2700.00000, 2378.36, -3.16161, 2457.34, -121.837, 2413.39, 117.953, 0, 0, 0.0000137897, -92.8024, 0.0000141017, 148.159, 0.0000139961, 27.6082, 0, 0
22, 0.00000, 2381.31, -3.11572, 2458.64, -121.809, 2415.33, 117.978, 0, 0, 0.0000138054, -92.7624, 0.000014111, 148.184, 0.0000140069, 27.6409, 0, 0
22, 900.00000, 2384.27, -3.06943, 2459.91, -121.782, 2417.27, 118.002, 0, 0, 0.0000138211, -92.7221, 0.0000141202, 148.209, 0.0000140177, 27.6736, 0, 0
22, 1800.00000, 2387.24, -3.02297, 2461.22, -121.755, 2419.27, 118.028, 0, 0, 0.000013837, -92.6817, 0.0000141296, 148.234, 0.0000140288, 27.7072, 0, 0
22, 2700.00000, 2390.4, -2.95564, 2461.96, -121.716, 2421.37, 118.045, 0, 0, 0.0000138529, -92.6261, 0.0000141374, 148.27, 0.0000140399, 27.7384, 0, 0
23, 0.00000, 2393.35, -2.90932, 2463.26, -121.69, 2423.38, 118.071, 0, 0, 0.0000138687, -92.5858, 0.0000141467, 148.295, 0.0000140509, 27.772, 0, 0
23, 900.00000, 2396.09, -2.86901, 2464.89, -121.664, 2425.12, 118.116, 0, 0, 0.0000138841, -92.5469, 0.0000141565, 148.32, 0.0000140609, 27.8184, 0, 0
23, 1800.00000, 2382.63, -2.85357, 2450.47, -121.654, 2411.12, 118.124, 0, 0, 0.0000138057, -92.5333, 0.0000140743, 148.328, 0.0000139797, 27.8291, 0, 0
23, 2700.00000, 2384.55, -2.82326, 2451.33, -121.637, 2412.45, 118.141, 0, 0, 0.000013816, -92.5069, 0.0000140804, 148.345, 0.000013987, 27.8515, 0, 0
24, 0.00000, 2386.47, -2.79268, 2452.18, -121.619, 2413.77, 118.159, 0, 0, 0.0000138263, -92.4803, 0.0000140865, 148.361, 0.0000139943, 27.8739, 0, 0
