hour,t(sec),V1,VAngle1,V2,VAngle2,V3,VAngle3,I1,IAngle1,I2,IAngle2,I3,IAngle3
0, 900.00000, 1495.68, -2.57203, 2898.58, -129.057, 2797.53, 124.846, 0.0000104904, 90, 0.0000158723, -32.7352, 0.000015171, -149.808
0, 1800.00000, 1496.12, -2.56056, 2899.26, -129.053, 2798.24, 124.859, 0.0000105053, 90, 0.0000158239, -30.8157, 0.000015171, -149.808
0, 2700.00000, 1496.56, -2.54907, 2899.95, -129.048, 2798.95, 124.873, 0.000010508, 88.6999, 0.0000161351, -34.1597, 0.000015171, -149.808
1, 0.00000, 1497, -2.53757, 2900.64, -129.043, 2799.66, 124.886, 0.0000105128, 90, 0.0000158723, -32.7352, 0.0000151466, -151.821
1, 900.00000, 1497.44, -2.52607, 2901.32, -129.038, 2800.37, 124.899, 0.0000105277, 90, 0.0000156196, -31.2637, 0.0000153775, -150.255
1, 1800.00000, 1497.66, -2.51999, 2901.67, -129.037, 2800.8, 124.907, 0.0000105277, 90, 0.0000161351, -34.1597, 0.000015171, -149.808
1, 2700.00000, 1497.87, -2.5139, 2902.01, -129.035, 2801.23, 124.915, 0.0000105229, 88.7017, 0.0000158723, -32.7352, 0.0000149369, -151.39
2, 0.00000, 1498.09, -2.50781, 2902.35, -129.033, 2801.67, 124.923, 0.0000105128, 90, 0.0000156196, -31.2637, 0.000015171, -149.808
2, 900.00000, 1498.3, -2.50172, 2902.7, -129.031, 2802.1, 124.931, 0.0000105202, 90, 0.0000156196, -31.2637, 0.0000151466, -151.821
2, 1800.00000, 1498.38, -2.49954, 2902.84, -129.031, 2802.27, 124.934, 0.0000105277, 90, 0.0000156196, -31.2637, 0.000015171, -149.808
2, 2700.00000, 1498.46, -2.49736, 2902.98, -129.03, 2802.44, 124.937, 0.0000105202, 90, 0.0000156196, -31.2637, 0.000015171, -149.808
3, 0.00000, 1498.54, -2.49518, 2903.11, -129.029, 2802.61, 124.94, 0.0000105277, 90, 0.0000158723, -32.7352, 0.0000153775, -150.255
3, 900.00000, 1498.62, -2.49299, 2903.25, -129.029, 2802.78, 124.944, 0.0000105128, 90, 0.0000158723, -32.7352, 0.0000151466, -151.821
3, 1800.00000, 1498.33, -2.50036, 2902.83, -129.032, 2802.43, 124.937, 0.0000105155, 88.7008, 0.0000160734, -32.2756, 0.0000156196, -148.736
3, 2700.00000, 1498.03, -2.50771, 2902.4, -129.036, 2802.08, 124.93, 0.0000105351, 90, 0.0000160734, -32.2756, 0.0000151466, -151.821
4, 0.00000, 1497.73, -2.51505, 2901.97, -129.04, 2801.73, 124.923, 0.0000105202, 90, 0.0000158239, -30.8157, 0.0000153775, -150.255
4, 900.00000, 1497.43, -2.5224, 2901.54, -129.044, 2801.39, 124.917, 0.0000105128, 90, 0.0000156196, -31.2637, 0.0000149369, -151.39
4, 1800.00000, 1496.6, -2.54299, 2900.31, -129.054, 2800.33, 124.897, 0.0000105202, 90, 0.0000156196, -31.2637, 0.0000153775, -150.255
4, 2700.00000, 1495.77, -2.56354, 2899.08, -129.065, 2799.28, 124.876, 0.000010483, 90, 0.0000156196, -31.2637, 0.000015171, -149.808
5, 0.00000, 1494.94, -2.58405, 2897.85, -129.075, 2798.22, 124.856, 0.0000104904, 90, 0.0000160734, -32.2756, 0.0000151466, -151.821
5, 900.00000, 1494.12, -2.60451, 2896.62, -129.086, 2797.16, 124.836, 0.0000105053, 90, 0.0000156196, -31.2637, 0.0000153775, -150.255
5, 1800.00000, 1492.52, -2.6429, 2894.21, -129.107, 2795.24, 124.798, 0.0000104904, 90, 0.0000158723, -32.7352, 0.0000149369, -151.39
5, 2700.00000, 1490.92, -2.68114, 2891.8, -129.128, 2793.31, 124.76, 0.0000104904, 90, 0.0000158239, -30.8157, 0.000015171, -149.808
6, 0.00000, 1489.33, -2.71924, 2889.39, -129.15, 2791.38, 124.722, 0.0000104782, 88.6962, 0.0000156723, -33.2066, 0.0000149654, -149.349
6, 900.00000, 1487.75, -2.75705, 2886.97, -129.171, 2789.45, 124.684, 0.000010485, 86.0884, 0.0000156723, -33.2066, 0.0000149654, -149.349
6, 1800.00000, 1486.94, -2.77612, 2885.75, -129.183, 2788.52, 124.666, 0.0000104553, 86.0773, 0.0000156723, -33.2066, 0.0000154163, -148.276
6, 2700.00000, 1486.14, -2.79514, 2884.54, -129.194, 2787.59, 124.647, 0.0000104566, 87.3863, 0.0000154163, -31.7236, 0.0000149654, -149.349
7, 0.00000, 1485.33, -2.81412, 2883.32, -129.205, 2786.66, 124.629, 0.0000104553, 86.0773, 0.0000154163, -31.7236, 0.0000149654, -149.349
7, 900.00000, 1484.53, -2.83306, 2882.1, -129.216, 2785.73, 124.611, 0.0000104268, 87.3788, 0.0000156723, -33.2066, 0.000015171, -149.808
7, 1800.00000, 1487.31, -2.63636, 2882.22, -129.178, 2787.11, 124.642, 0.0000104335, 88.6906, 0.0000158723, -32.7352, 0.000014728, -150.945
7, 2700.00000, 1488.49, -2.5516, 2882.36, -129.159, 2787.71, 124.659, 0.0000104484, 88.6925, 0.0000156196, -31.2637, 0.0000154163, -148.276
8, 0.00000, 1489.63, -2.46842, 2882.44, -129.142, 2788.28, 124.675, 0.0000104566, 87.3863, 0.0000154163, -31.7236, 0.0000149654, -149.349
8, 900.00000, 1490.77, -2.385, 2882.53, -129.125, 2788.86, 124.69, 0.0000104633, 88.6943, 0.0000156196, -31.2637, 0.000015214, -147.804
8, 1800.00000, 1491.75, -2.3197, 2882.8, -129.111, 2789.52, 124.705, 0.0000104633, 88.6943, 0.0000156723, -33.2066, 0.0000149654, -149.349
8, 2700.00000, 1492.73, -2.25422, 2883.08, -129.097, 2790.19, 124.721, 0.0000104708, 88.6953, 0.0000156196, -31.2637, 0.0000149654, -149.349
9, 0.00000, 1493.7, -2.18856, 2883.35, -129.083, 2790.85, 124.736, 0.0000104864, 87.3937, 0.0000154163, -31.7236, 0.000015171, -149.808
9, 900.00000, 1494.68, -2.12272, 2883.62, -129.07, 2791.52, 124.751, 0.0000104938, 87.3956, 0.0000154163, -31.7236, 0.0000149369, -151.39
9, 1800.00000, 1495.09, -2.09112, 2883.57, -129.065, 2791.82, 124.756, 0.0000104857, 88.6971, 0.0000156723, -33.2066, 0.0000149654, -149.349
9, 2700.00000, 1495.5, -2.05948, 2883.52, -129.061, 2792.12, 124.761, 0.0000105012, 87.3974, 0.0000158723, -32.7352, 0.0000149654, -149.349
10, 0.00000, 1495.91, -2.02782, 2883.47, -129.057, 2792.42, 124.765, 0.0000104938, 87.3956, 0.0000154163, -31.7236, 0.0000149369, -151.39
10, 900.00000, 1496.32, -1.99611, 2883.42, -129.053, 2792.72, 124.77, 0.0000104782, 88.6962, 0.0000158723, -32.7352, 0.000015171, -149.808
10, 1800.00000, 1496.57, -1.9843, 2883.65, -129.05, 2793.03, 124.776, 0.0000105087, 87.3993, 0.0000154163, -31.7236, 0.000015171, -149.808
10, 2700.00000, 1496.81, -1.97249, 2883.89, -129.047, 2793.35, 124.783, 0.0000105006, 88.699, 0.0000156723, -33.2066, 0.000015214, -147.804
11, 0.00000, 1497.05, -1.96067, 2884.12, -129.044, 2793.66, 124.789, 0.0000105006, 88.699, 0.0000156723, -33.2066, 0.000015171, -149.808
11, 900.00000, 1497.3, -1.94885, 2884.36, -129.041, 2793.98, 124.796, 0.0000105012, 87.3974, 0.0000154163, -31.7236, 0.000015214, -147.804
11, 1800.00000, 1497.46, -1.94215, 2884.56, -129.04, 2794.28, 124.801, 0.0000105012, 87.3974, 0.0000154163, -31.7236, 0.000014728, -150.945
11, 2700.00000, 1497.63, -1.93544, 2884.76, -129.039, 2794.58, 124.806, 0.0000105006, 88.699, 0.0000158723, -32.7352, 0.000015171, -149.808
12, 0.00000, 1497.8, -1.92873, 2884.96, -129.038, 2794.88, 124.811, 0.0000105012, 87.3974, 0.0000156196, -31.2637, 0.0000153775, -150.255
12, 900.00000, 1497.96, -1.92201, 2885.16, -129.036, 2795.17, 124.816, 0.0000105161, 87.4011, 0.0000156196, -31.2637, 0.0000149654, -149.349
12, 1800.00000, 1497.77, -1.94026, 2885.43, -129.036, 2795.22, 124.82, 0.0000105006, 88.699, 0.0000156723, -33.2066, 0.0000149654, -149.349
12, 2700.00000, 1497.57, -1.95849, 2885.69, -129.036, 2795.26, 124.825, 0.0000104931, 88.698, 0.0000156196, -31.2637, 0.0000151466, -151.821
13, 0.00000, 1497.37, -1.97672, 2885.96, -129.036, 2795.3, 124.829, 0.0000104938, 87.3956, 0.0000156723, -33.2066, 0.0000151466, -151.821
13, 900.00000, 1497.17, -1.99494, 2886.23, -129.036, 2795.34, 124.833, 0.0000105006, 88.699, 0.0000154163, -31.7236, 0.0000149654, -149.349
13, 1800.00000, 1496.73, -2.0278, 2886.34, -129.04, 2795.14, 124.832, 0.0000105012, 87.3974, 0.0000156723, -33.2066, 0.000015171, -149.808
13, 2700.00000, 1496.29, -2.06063, 2886.44, -129.044, 2794.94, 124.83, 0.0000104857, 88.6971, 0.0000156196, -31.2637, 0.000015171, -149.808
14, 0.00000, 1495.85, -2.09341, 2886.55, -129.048, 2794.75, 124.829, 0.0000104857, 88.6971, 0.0000156723, -33.2066, 0.000015171, -149.808
14, 900.00000, 1495.41, -2.12616, 2886.66, -129.053, 2794.55, 124.828, 0.0000105087, 87.3993, 0.0000156723, -33.2066, 0.0000149369, -151.39
14, 1800.00000, 1494.52, -2.18971, 2886.44, -129.066, 2793.88, 124.811, 0.0000104857, 88.6971, 0.0000156723, -33.2066, 0.0000149369, -151.39
14, 2700.00000, 1493.63, -2.2531, 2886.22, -129.079, 2793.21, 124.794, 0.0000104782, 88.6962, 0.0000158723, -32.7352, 0.000015171, -149.808
15, 0.00000, 1492.73, -2.31635, 2886, -129.092, 2792.54, 124.778, 0.0000104782, 88.6962, 0.0000156723, -33.2066, 0.0000149654, -149.349
15, 900.00000, 1491.83, -2.37944, 2885.78, -129.105, 2791.87, 124.761, 0.0000104782, 88.6962, 0.0000154163, -31.7236, 0.000015171, -149.808
15, 1800.00000, 1490.04, -2.48089, 2884.6, -129.13, 2790.12, 124.723, 0.0000104457, 90, 0.0000156723, -33.2066, 0.0000154163, -148.276
15, 2700.00000, 1487.3, -2.65087, 2884.15, -129.154, 2788.01, 124.695, 0.0000104484, 88.6925, 0.0000154163, -31.7236, 0.0000149369, -151.39
16, 0.00000, 1485.91, -2.71892, 2882.45, -129.183, 2786.39, 124.646, 0.0000104335, 88.6906, 0.0000154163, -31.7236, 0.000014728, -150.945
16, 900.00000, 1483.57, -2.85503, 2880.42, -129.229, 2784.25, 124.581, 0.0000104119, 87.3751, 0.0000156723, -33.2066, 0.000015171, -149.808
16, 1800.00000, 1481.85, -2.8981, 2877.58, -129.25, 2781.47, 124.527, 0.000010397, 87.3713, 0.0000156196, -31.2637, 0.0000154163, -148.276
16, 2700.00000, 1480.13, -2.94099, 2874.73, -129.27, 2778.68, 124.474, 0.0000104119, 87.3751, 0.0000156723, -33.2066, 0.0000153775, -150.255
17, 0.00000, 1478.42, -2.98369, 2871.89, -129.29, 2775.88, 124.42, 0.0000103673, 87.3638, 0.0000154163, -31.7236, 0.0000149654, -149.349
17, 900.00000, 1476.71, -3.02623, 2869.04, -129.31, 2773.09, 124.366, 0.0000103822, 87.3676, 0.0000154163, -31.7236, 0.0000150128, -147.319
17, 1800.00000, 1476.34, -3.03584, 2868.42, -129.314, 2772.41, 124.354, 0.0000103591, 88.6812, 0.0000158723, -32.7352, 0.000015214, -147.804
17, 2700.00000, 1475.97, -3.04533, 2867.79, -129.318, 2771.75, 124.341, 0.0000103673, 87.3638, 0.0000156196, -31.2637, 0.0000147608, -148.878
18, 0.00000, 1475.61, -3.05481, 2867.17, -129.322, 2771.08, 124.329, 0.0000103591, 88.6812, 0.0000156723, -33.2066, 0.000014728, -150.945
18, 900.00000, 1475.24, -3.06427, 2866.55, -129.326, 2770.41, 124.316, 0.0000103673, 87.3638, 0.0000154163, -31.7236, 0.000014728, -150.945
18, 1800.00000, 1475.61, -3.05589, 2867.13, -129.321, 2770.84, 124.325, 0.0000103524, 87.36, 0.0000156723, -33.2066, 0.0000145201, -150.488
18, 2700.00000, 1475.97, -3.04743, 2867.71, -129.316, 2771.28, 124.333, 0.0000103822, 87.3676, 0.0000156723, -33.2066, 0.0000145201, -150.488
19, 0.00000, 1476.34, -3.03896, 2868.29, -129.31, 2771.72, 124.342, 0.0000103822, 87.3676, 0.0000156723, -33.2066, 0.000014728, -150.945
19, 900.00000, 1476.71, -3.03047, 2868.87, -129.305, 2772.15, 124.351, 0.000010381, 86.0492, 0.0000156723, -33.2066, 0.000014728, -150.945
19, 1800.00000, 1477.24, -3.01782, 2869.72, -129.298, 2772.85, 124.365, 0.000010381, 86.0492, 0.0000156196, -31.2637, 0.0000149654, -149.349
19, 2700.00000, 1477.77, -3.00513, 2870.56, -129.291, 2773.54, 124.378, 0.0000103822, 87.3676, 0.0000158723, -32.7352, 0.000014728, -150.945
20, 0.00000, 1478.31, -2.99243, 2871.41, -129.283, 2774.24, 124.392, 0.0000103958, 86.0548, 0.0000154163, -31.7236, 0.000014728, -150.945
20, 900.00000, 1478.84, -2.97971, 2872.25, -129.276, 2774.94, 124.406, 0.0000103673, 87.3638, 0.0000156723, -33.2066, 0.000014728, -150.945
20, 1800.00000, 1479.76, -2.95747, 2873.72, -129.264, 2776.2, 124.43, 0.0000103739, 88.6831, 0.0000154163, -31.7236, 0.0000145201, -150.488
20, 2700.00000, 1480.69, -2.93516, 2875.18, -129.252, 2777.47, 124.455, 0.000010397, 87.3713, 0.0000156723, -33.2066, 0.000014728, -150.945
21, 0.00000, 1481.61, -2.91279, 2876.65, -129.24, 2778.73, 124.48, 0.0000104256, 86.0661, 0.0000156723, -33.2066, 0.000015171, -149.808
21, 900.00000, 1482.54, -2.89037, 2878.11, -129.228, 2780, 124.504, 0.0000104256, 86.0661, 0.0000154163, -31.7236, 0.000014728, -150.945
21, 1800.00000, 1483.83, -2.85899, 2880.17, -129.212, 2781.8, 124.539, 0.0000104256, 86.0661, 0.0000156196, -31.2637, 0.0000149654, -149.349
21, 2700.00000, 1485.13, -2.82748, 2882.22, -129.195, 2783.6, 124.574, 0.0000104404, 86.0717, 0.0000156723, -33.2066, 0.000014728, -150.945
22, 0.00000, 1486.43, -2.79587, 2884.27, -129.178, 2785.4, 124.609, 0.0000104268, 87.3788, 0.0000154163, -31.7236, 0.000014728, -150.945
22, 900.00000, 1487.73, -2.76416, 2886.32, -129.161, 2787.2, 124.644, 0.0000104715, 87.39, 0.0000158723, -32.7352, 0.0000149369, -151.39
22, 1800.00000, 1489.05, -2.73208, 2888.4, -129.145, 2789.05, 124.68, 0.0000104715, 87.39, 0.0000156723, -33.2066, 0.0000149654, -149.349
22, 2700.00000, 1490.36, -2.69974, 2890.47, -129.128, 2790.9, 124.716, 0.0000104633, 88.6943, 0.0000156723, -33.2066, 0.0000149654, -149.349
23, 0.00000, 1491.68, -2.66728, 2892.53, -129.112, 2792.75, 124.752, 0.0000104606, 90, 0.0000156196, -31.2637, 0.0000149369, -151.39
23, 900.00000, 1493.01, -2.63472, 2894.6, -129.095, 2794.6, 124.788, 0.0000104755, 90, 0.0000160734, -32.2756, 0.0000153775, -150.255
23, 1800.00000, 1493.87, -2.61361, 2895.96, -129.084, 2795.83, 124.811, 0.0000104904, 90, 0.0000158723, -32.7352, 0.000015171, -149.808
23, 2700.00000, 1494.73, -2.59246, 2897.32, -129.073, 2797.06, 124.835, 0.0000105053, 90, 0.0000158723, -32.7352, 0.000015171, -149.808
24, 0.00000, 1495.6, -2.57126, 2898.68, -129.062, 2798.28, 124.859, 0.0000105053, 90, 0.0000156196, -31.2637, 0.0000153775, -150.255
