hour,t(sec),V1,VAngle1,I1,IAngle1
0, 900.00000, 1.2178, 128.724, 0.0072918, -77.8409
0, 1800.00000, 1.22109, 128.788, 0.00725397, -77.7767
0, 2700.00000, 1.22299, 128.935, 0.00720762, -77.6305
1, 0.00000, 1.22491, 129.078, 0.0071612, -77.4873
1, 900.00000, 1.22686, 129.219, 0.00711483, -77.3463
1, 1800.00000, 1.22818, 129.281, 0.00708699, -77.2838
1, 2700.00000, 1.22952, 129.343, 0.00705914, -77.2224
2, 0.00000, 1.22547, 129.367, 0.00700048, -77.1983
2, 900.00000, 1.2268, 129.426, 0.00697263, -77.1392
2, 1800.00000, 1.22741, 129.45, 0.00696097, -77.1147
2, 2700.00000, 1.22801, 129.474, 0.0069493, -77.0906
3, 0.00000, 1.22862, 129.498, 0.00693762, -77.0665
3, 900.00000, 1.22923, 129.522, 0.00692594, -77.0426
3, 1800.00000, 1.22852, 129.43, 0.00694789, -77.1348
3, 2700.00000, 1.22783, 129.337, 0.00696988, -77.2281
4, 0.00000, 1.22715, 129.243, 0.00699192, -77.3223
4, 900.00000, 1.22649, 129.148, 0.00701401, -77.4173
4, 1800.00000, 1.22422, 128.878, 0.00708236, -77.6869
4, 2700.00000, 1.22207, 128.601, 0.00715106, -77.9636
5, 0.00000, 1.22004, 128.318, 0.00722014, -78.2466
5, 900.00000, 1.21812, 128.028, 0.00728966, -78.5357
5, 1800.00000, 1.21492, 127.443, 0.00742078, -79.1221
5, 2700.00000, 1.21214, 126.841, 0.00755352, -79.7235
6, 0.00000, 1.20979, 126.223, 0.00768827, -80.3407
6, 900.00000, 1.20785, 125.593, 0.00782548, -80.9718
6, 1800.00000, 1.20734, 125.269, 0.00789209, -81.2949
6, 2700.00000, 1.20689, 124.944, 0.00795962, -81.6212
7, 0.00000, 1.20658, 124.617, 0.0080277, -81.9483
7, 900.00000, 1.20958, 124.439, 0.00811808, -82.1258
7, 1800.00000, 1.20892, 128.187, 0.00811934, -78.3779
7, 2700.00000, 1.21106, 129.943, 0.00813944, -76.6223
8, 0.00000, 1.21494, 131.792, 0.00817124, -74.7736
8, 900.00000, 1.22099, 133.743, 0.0082177, -72.8227
8, 1800.00000, 1.22831, 135.308, 0.00825147, -71.2568
8, 2700.00000, 1.23742, 136.921, 0.00829703, -69.6433
9, 0.00000, 1.24858, 138.583, 0.00835611, -67.981
9, 900.00000, 1.26204, 140.29, 0.0084303, -66.2734
9, 1800.00000, 1.26873, 140.991, 0.00847182, -65.5733
9, 2700.00000, 1.27539, 141.676, 0.00851314, -64.8879
10, 0.00000, 1.2825, 142.368, 0.00855742, -64.1966
10, 900.00000, 1.29009, 143.065, 0.00860495, -63.4996
10, 1800.00000, 1.29453, 143.289, 0.00861326, -63.2761
10, 2700.00000, 1.29857, 143.489, 0.00861889, -63.0758
11, 0.00000, 1.30294, 143.687, 0.00862646, -62.8783
11, 900.00000, 1.30728, 143.879, 0.00863379, -62.6864
11, 1800.00000, 1.31056, 143.969, 0.00863155, -62.5961
11, 2700.00000, 1.31389, 144.057, 0.00862957, -62.5082
12, 0.00000, 1.31723, 144.145, 0.00862751, -62.4203
12, 900.00000, 1.32062, 144.231, 0.00862564, -62.3342
12, 1800.00000, 1.32186, 144.235, 0.00861917, -62.3304
12, 2700.00000, 1.32307, 144.238, 0.00861252, -62.3272
13, 0.00000, 1.32429, 144.241, 0.00860584, -62.3243
13, 900.00000, 1.32551, 144.244, 0.00859915, -62.3216
13, 1800.00000, 1.31803, 143.616, 0.00854819, -62.95
13, 2700.00000, 1.31083, 142.99, 0.00849918, -63.5752
14, 0.00000, 1.30402, 142.37, 0.00845265, -64.1959
14, 900.00000, 1.29756, 141.753, 0.0084085, -64.8119
14, 1800.00000, 1.28042, 140.177, 0.00831273, -66.3888
14, 2700.00000, 1.26576, 138.631, 0.00823272, -67.9341
15, 0.00000, 1.25336, 137.122, 0.00816712, -69.4427
15, 900.00000, 1.24299, 135.654, 0.00811446, -70.9107
15, 1800.00000, 1.2268, 133.138, 0.00809869, -73.4279
15, 2700.00000, 1.21424, 130.707, 0.00810533, -75.8578
16, 0.00000, 1.20766, 128.394, 0.00815, -78.1711
16, 900.00000, 1.20676, 124.004, 0.00823261, -82.5605
16, 1800.00000, 1.20318, 123.255, 0.00843699, -83.31
16, 2700.00000, 1.20039, 122.487, 0.00864563, -84.0781
17, 0.00000, 1.19819, 121.707, 0.00885766, -84.8577
17, 900.00000, 1.19645, 120.923, 0.0090723, -85.642
17, 1800.00000, 1.19604, 120.751, 0.0091234, -85.8142
17, 2700.00000, 1.19564, 120.577, 0.00917459, -85.9875
18, 0.00000, 1.19527, 120.404, 0.00922599, -86.1613
18, 900.00000, 1.19494, 120.229, 0.00927759, -86.3354
18, 1800.00000, 1.19451, 120.392, 0.00924088, -86.1732
18, 2700.00000, 1.19411, 120.555, 0.00920426, -86.0099
19, 0.00000, 1.19372, 120.719, 0.00916782, -85.8466
19, 900.00000, 1.19336, 120.882, 0.00913156, -85.6833
19, 1800.00000, 1.19304, 121.121, 0.00907545, -85.4444
19, 2700.00000, 1.19277, 121.36, 0.00901971, -85.2055
20, 0.00000, 1.19255, 121.598, 0.00896436, -84.9669
20, 900.00000, 1.19238, 121.836, 0.00890939, -84.7286
20, 1800.00000, 1.19243, 122.248, 0.00881129, -84.317
20, 2700.00000, 1.19263, 122.658, 0.00871429, -83.9068
21, 0.00000, 1.19299, 123.066, 0.00861839, -83.4984
21, 900.00000, 1.19351, 123.472, 0.00852355, -83.0923
21, 1800.00000, 1.19471, 124.037, 0.00839024, -82.5275
21, 2700.00000, 1.19622, 124.595, 0.00825882, -81.9689
22, 0.00000, 1.19804, 125.145, 0.00812909, -81.4205
22, 900.00000, 1.20035, 125.683, 0.00800215, -80.8821
22, 1800.00000, 1.20307, 126.22, 0.00787192, -80.3444
22, 2700.00000, 1.20613, 126.749, 0.00774318, -79.816
23, 0.00000, 1.20951, 127.265, 0.00761576, -79.2992
23, 900.00000, 1.21321, 127.769, 0.00748952, -78.7953
23, 1800.00000, 1.216, 128.092, 0.00740525, -78.4735
23, 2700.00000, 1.2191, 128.403, 0.00732231, -78.162
24, 0.00000, 1.22216, 128.711, 0.00723864, -77.8537
