hour,t(sec),V1,VAngle1,V2,VAngle2,V3,VAngle3,I1,IAngle1,I2,IAngle2,I3,IAngle3
0, 900.00000, 2316.68, -3.27217, 2382.72, -122.162, 2341.03, 117.646, 5.47588E-12, 94.7636, 1.87497E-12, -75.9638, 5.14488E-12, -45
0, 1800.00000, 2317.46, -3.25527, 2382.97, -122.154, 2341.65, 117.656, 0.354902, 131.744, 0.364942, 12.8455, 0.358608, -107.344
0, 2700.00000, 2318.53, -3.23617, 2383.5, -122.145, 2342.54, 117.668, 0.352335, 131.763, 0.362217, 12.855, 0.355987, -107.332
1, 0.00000, 2319.6, -3.21707, 2384.03, -122.135, 2343.44, 117.681, 0.349768, 131.782, 0.359491, 12.8647, 0.353364, -107.319
1, 900.00000, 2320.67, -3.19797, 2384.55, -122.125, 2344.33, 117.693, 0.347197, 131.801, 0.356763, 12.8743, 0.350739, -107.307
1, 1800.00000, 2321.21, -3.18759, 2384.8, -122.122, 2344.88, 117.701, 0.34455, 131.812, 0.353993, 12.8783, 0.348063, -107.299
1, 2700.00000, 2321.75, -3.17727, 2385.04, -122.118, 2345.43, 117.709, 0.343126, 131.822, 0.352484, 12.8821, 0.346626, -107.291
2, 0.00000, 2322.28, -3.16696, 2385.29, -122.114, 2345.98, 117.717, 0.341701, 131.832, 0.350975, 12.8859, 0.345187, -107.283
2, 900.00000, 2322.82, -3.15664, 2385.53, -122.11, 2346.53, 117.725, 0.340275, 131.843, 0.349466, 12.8896, 0.343748, -107.276
2, 1800.00000, 2323.03, -3.15264, 2385.63, -122.109, 2346.75, 117.728, 0.338804, 131.847, 0.347936, 12.8912, 0.342263, -107.272
2, 2700.00000, 2323.23, -3.14868, 2385.73, -122.107, 2346.96, 117.731, 0.338283, 131.851, 0.347385, 12.8927, 0.341738, -107.269
3, 0.00000, 2323.44, -3.14472, 2385.84, -122.106, 2347.18, 117.734, 0.337762, 131.855, 0.346834, 12.8942, 0.341214, -107.266
3, 900.00000, 2323.64, -3.14076, 2385.94, -122.104, 2347.4, 117.738, 0.337241, 131.859, 0.346284, 12.8958, 0.340689, -107.262
3, 1800.00000, 2322.96, -3.152, 2385.58, -122.112, 2346.97, 117.732, 0.336599, 131.849, 0.345667, 12.8886, 0.340075, -107.268
3, 2700.00000, 2322.26, -3.16334, 2385.23, -122.119, 2346.54, 117.727, 0.338142, 131.837, 0.347303, 12.8812, 0.341673, -107.273
4, 0.00000, 2321.57, -3.17468, 2384.87, -122.127, 2346.11, 117.721, 0.339683, 131.826, 0.348939, 12.8737, 0.34327, -107.279
4, 900.00000, 2320.88, -3.18602, 2384.52, -122.134, 2345.68, 117.715, 0.341224, 131.815, 0.350574, 12.8663, 0.344866, -107.285
4, 1800.00000, 2318.93, -3.2185, 2383.52, -122.154, 2344.37, 117.698, 0.34259, 131.784, 0.352114, 12.8463, 0.346339, -107.302
4, 2700.00000, 2316.97, -3.25112, 2382.52, -122.175, 2343.05, 117.681, 0.346974, 131.751, 0.356772, 12.826, 0.350872, -107.319
5, 0.00000, 2315.02, -3.28376, 2381.51, -122.195, 2341.74, 117.663, 0.351351, 131.718, 0.361426, 12.8056, 0.355398, -107.337
5, 900.00000, 2313.06, -3.31641, 2380.51, -122.216, 2340.43, 117.646, 0.35572, 131.686, 0.366075, 12.7852, 0.35992, -107.354
5, 1800.00000, 2309.26, -3.37839, 2378.52, -122.257, 2338.03, 117.614, 0.359778, 131.622, 0.370564, 12.7431, 0.364258, -107.386
5, 2700.00000, 2305.47, -3.44029, 2376.52, -122.298, 2335.64, 117.582, 0.367861, 131.56, 0.379194, 12.7016, 0.372673, -107.418
6, 0.00000, 2301.67, -3.50223, 2374.52, -122.34, 2333.24, 117.55, 0.375915, 131.498, 0.387808, 12.6601, 0.38107, -107.45
6, 900.00000, 2297.87, -3.5642, 2372.51, -122.381, 2330.85, 117.518, 0.38394, 131.436, 0.396407, 12.6186, 0.389448, -107.482
6, 1800.00000, 2295.95, -3.59504, 2371.49, -122.403, 2329.7, 117.503, 0.392276, 131.407, 0.405162, 12.5978, 0.39803, -107.497
6, 2700.00000, 2294.03, -3.62601, 2370.47, -122.424, 2328.55, 117.488, 0.396279, 131.376, 0.409464, 12.5763, 0.40223, -107.512
7, 0.00000, 2292.1, -3.65699, 2369.46, -122.446, 2327.4, 117.473, 0.400274, 131.345, 0.413762, 12.5548, 0.406426, -107.527
7, 900.00000, 2290.17, -3.68798, 2368.44, -122.467, 2326.26, 117.458, 0.404261, 131.314, 0.418056, 12.5333, 0.410617, -107.542
7, 1800.00000, 2290.01, -3.69056, 2368.36, -122.469, 2326.16, 117.457, 0.408535, 131.31, 0.42251, 12.5309, 0.414983, -107.543
7, 2700.00000, 2289.86, -3.69296, 2368.28, -122.471, 2326.07, 117.456, 0.408836, 131.307, 0.422835, 12.5292, 0.4153, -107.544
8, 0.00000, 2289.71, -3.69535, 2368.2, -122.473, 2325.98, 117.455, 0.409137, 131.305, 0.423159, 12.5275, 0.415616, -107.545
8, 900.00000, 2289.56, -3.69775, 2368.12, -122.474, 2325.89, 117.454, 0.409438, 131.302, 0.423484, 12.5258, 0.415933, -107.546
8, 1800.00000, 2289.8, -3.69332, 2368.24, -122.472, 2326.12, 117.457, 0.409804, 131.306, 0.423844, 12.5277, 0.416304, -107.543
8, 2700.00000, 2290.04, -3.68886, 2368.36, -122.47, 2326.34, 117.46, 0.409237, 131.311, 0.423235, 12.5297, 0.415724, -107.54
9, 0.00000, 2290.29, -3.68439, 2368.48, -122.468, 2326.57, 117.464, 0.408671, 131.315, 0.422626, 12.5318, 0.415145, -107.537
9, 900.00000, 2290.53, -3.67992, 2368.6, -122.466, 2326.8, 117.467, 0.408104, 131.32, 0.422016, 12.5338, 0.414566, -107.533
9, 1800.00000, 2290.5, -3.67956, 2368.55, -122.468, 2326.88, 117.468, 0.407491, 131.32, 0.421376, 12.5323, 0.413961, -107.532
9, 2700.00000, 2290.47, -3.67922, 2368.49, -122.469, 2326.96, 117.469, 0.407353, 131.321, 0.421229, 12.5306, 0.413841, -107.531
10, 0.00000, 2290.43, -3.67888, 2368.43, -122.471, 2327.04, 117.47, 0.407215, 131.321, 0.421082, 12.5289, 0.413721, -107.53
10, 900.00000, 2290.4, -3.67855, 2368.38, -122.473, 2327.12, 117.471, 0.407076, 131.321, 0.420935, 12.5272, 0.4136, -107.529
10, 1800.00000, 2290.74, -3.67227, 2368.53, -122.47, 2327.43, 117.476, 0.406999, 131.327, 0.420825, 12.5297, 0.41352, -107.524
10, 2700.00000, 2291.08, -3.66595, 2368.69, -122.468, 2327.75, 117.48, 0.40615, 131.334, 0.419913, 12.5323, 0.412652, -107.52
11, 0.00000, 2291.42, -3.65963, 2368.85, -122.465, 2328.07, 117.485, 0.405301, 131.34, 0.419001, 12.5349, 0.411785, -107.515
11, 900.00000, 2291.75, -3.65331, 2369, -122.462, 2328.39, 117.489, 0.404452, 131.346, 0.418088, 12.5375, 0.410918, -107.511
11, 1800.00000, 2292.09, -3.64677, 2369.15, -122.46, 2328.74, 117.494, 0.403602, 131.353, 0.417174, 12.5397, 0.410056, -107.506
11, 2700.00000, 2292.42, -3.64024, 2369.29, -122.458, 2329.09, 117.499, 0.40271, 131.359, 0.416218, 12.5419, 0.409152, -107.501
12, 0.00000, 2292.76, -3.6337, 2369.44, -122.456, 2329.44, 117.504, 0.401819, 131.366, 0.415261, 12.5441, 0.408248, -107.496
12, 900.00000, 2293.09, -3.62717, 2369.58, -122.454, 2329.8, 117.509, 0.400926, 131.372, 0.414304, 12.5463, 0.407344, -107.491
12, 1800.00000, 2293.27, -3.62361, 2369.67, -122.453, 2330, 117.512, 0.400009, 131.376, 0.413336, 12.5474, 0.406415, -107.488
12, 2700.00000, 2293.45, -3.62007, 2369.75, -122.451, 2330.2, 117.515, 0.399544, 131.38, 0.412837, 12.5486, 0.405946, -107.485
13, 0.00000, 2293.63, -3.61652, 2369.83, -122.45, 2330.4, 117.518, 0.399079, 131.383, 0.412339, 12.5497, 0.405476, -107.482
13, 900.00000, 2293.81, -3.61298, 2369.91, -122.449, 2330.6, 117.521, 0.398614, 131.387, 0.411841, 12.5509, 0.405007, -107.479
13, 1800.00000, 2293.83, -3.61232, 2369.91, -122.449, 2330.65, 117.522, 0.398123, 131.388, 0.411328, 12.5507, 0.404513, -107.478
13, 2700.00000, 2293.85, -3.61167, 2369.91, -122.45, 2330.69, 117.522, 0.398006, 131.388, 0.411203, 12.5505, 0.404398, -107.478
14, 0.00000, 2293.87, -3.61102, 2369.91, -122.45, 2330.74, 117.523, 0.397889, 131.389, 0.411078, 12.5503, 0.404283, -107.477
14, 900.00000, 2293.9, -3.61037, 2369.91, -122.45, 2330.79, 117.524, 0.397772, 131.39, 0.410952, 12.5501, 0.404168, -107.476
14, 1800.00000, 2293.82, -3.6131, 2369.91, -122.449, 2330.55, 117.52, 0.397638, 131.387, 0.410828, 12.5511, 0.404008, -107.48
14, 2700.00000, 2293.74, -3.61585, 2369.91, -122.448, 2330.31, 117.516, 0.398073, 131.384, 0.411291, 12.5522, 0.404422, -107.483
15, 0.00000, 2293.66, -3.6186, 2369.91, -122.447, 2330.07, 117.513, 0.398507, 131.382, 0.411755, 12.5534, 0.404837, -107.487
15, 900.00000, 2293.58, -3.62135, 2369.91, -122.445, 2329.84, 117.509, 0.398942, 131.379, 0.412219, 12.5545, 0.405251, -107.491
15, 1800.00000, 2292.13, -3.64825, 2369.21, -122.457, 2328.48, 117.49, 0.399153, 131.353, 0.412561, 12.543, 0.405481, -107.51
15, 2700.00000, 2290.66, -3.67529, 2368.5, -122.469, 2327.12, 117.47, 0.402683, 131.326, 0.416351, 12.5311, 0.409088, -107.529
16, 0.00000, 2289.2, -3.70235, 2367.79, -122.481, 2325.75, 117.451, 0.406207, 131.299, 0.420138, 12.5192, 0.41269, -107.549
16, 900.00000, 2287.73, -3.72942, 2367.09, -122.493, 2324.39, 117.431, 0.409727, 131.272, 0.423922, 12.5073, 0.416287, -107.568
16, 1800.00000, 2283.38, -3.80571, 2364.88, -122.534, 2320.88, 117.382, 0.412706, 131.195, 0.427431, 12.4662, 0.419482, -107.618
16, 2700.00000, 2279.03, -3.88201, 2362.66, -122.575, 2317.37, 117.332, 0.422359, 131.118, 0.437853, 12.4252, 0.429463, -107.668
17, 0.00000, 2274.66, -3.95839, 2360.44, -122.616, 2313.86, 117.283, 0.43197, 131.042, 0.448255, 12.3841, 0.439412, -107.717
17, 900.00000, 2270.29, -4.03485, 2358.22, -122.657, 2310.34, 117.233, 0.44154, 130.966, 0.458636, 12.3429, 0.449328, -107.767
17, 1800.00000, 2269.33, -4.05211, 2357.74, -122.665, 2309.5, 117.221, 0.451759, 130.949, 0.469346, 12.3348, 0.45975, -107.779
17, 2700.00000, 2268.38, -4.06938, 2357.28, -122.674, 2308.66, 117.209, 0.453935, 130.932, 0.471713, 12.3266, 0.461992, -107.791
18, 0.00000, 2267.42, -4.08666, 2356.81, -122.682, 2307.81, 117.197, 0.45611, 130.914, 0.474078, 12.3184, 0.464231, -107.803
18, 900.00000, 2266.47, -4.10394, 2356.34, -122.69, 2306.97, 117.185, 0.458283, 130.897, 0.476442, 12.3102, 0.466469, -107.815
18, 1800.00000, 2267.36, -4.08964, 2356.82, -122.68, 2307.5, 117.192, 0.460802, 130.91, 0.478996, 12.3198, 0.468968, -107.808
18, 2700.00000, 2268.27, -4.07514, 2357.31, -122.67, 2308.04, 117.199, 0.459018, 130.924, 0.477049, 12.33, 0.467075, -107.801
19, 0.00000, 2269.17, -4.06065, 2357.79, -122.659, 2308.58, 117.206, 0.457233, 130.939, 0.475102, 12.3402, 0.465181, -107.794
19, 900.00000, 2270.08, -4.04615, 2358.28, -122.649, 2309.12, 117.214, 0.455446, 130.953, 0.473153, 12.3505, 0.463287, -107.786
19, 1800.00000, 2271.4, -4.02442, 2358.97, -122.635, 2309.98, 117.225, 0.453735, 130.974, 0.471245, 12.3645, 0.461452, -107.775
19, 2700.00000, 2272.72, -4.00265, 2359.66, -122.621, 2310.84, 117.237, 0.451019, 130.996, 0.46829, 12.3787, 0.458594, -107.763
20, 0.00000, 2274.05, -3.98089, 2360.36, -122.607, 2311.7, 117.248, 0.4483, 131.018, 0.465332, 12.3929, 0.455734, -107.752
20, 900.00000, 2275.37, -3.95913, 2361.05, -122.592, 2312.57, 117.26, 0.445578, 131.04, 0.462373, 12.4071, 0.452872, -107.74
20, 1800.00000, 2277.65, -3.92097, 2362.24, -122.569, 2314.14, 117.282, 0.443025, 131.077, 0.459506, 12.4305, 0.450138, -107.719
20, 2700.00000, 2279.94, -3.88272, 2363.42, -122.545, 2315.72, 117.303, 0.438201, 131.115, 0.454274, 12.4542, 0.445092, -107.697
21, 0.00000, 2282.23, -3.84448, 2364.61, -122.521, 2317.29, 117.324, 0.433366, 131.153, 0.449035, 12.4779, 0.440038, -107.676
21, 900.00000, 2284.52, -3.80627, 2365.79, -122.498, 2318.87, 117.346, 0.428519, 131.192, 0.443792, 12.5016, 0.434978, -107.654
21, 1800.00000, 2287.72, -3.75237, 2367.44, -122.465, 2321.12, 117.377, 0.423859, 131.247, 0.438633, 12.5352, 0.430049, -107.623
21, 2700.00000, 2290.91, -3.69868, 2369.1, -122.432, 2323.37, 117.407, 0.417022, 131.301, 0.431258, 12.568, 0.422933, -107.593
22, 0.00000, 2294.09, -3.6453, 2370.75, -122.399, 2325.62, 117.438, 0.410127, 131.351, 0.423868, 12.5997, 0.415781, -107.562
22, 900.00000, 2297.27, -3.59169, 2372.41, -122.367, 2327.87, 117.469, 0.403249, 131.405, 0.416472, 12.6324, 0.408636, -107.532
22, 1800.00000, 2300.49, -3.53729, 2374.07, -122.334, 2330.18, 117.501, 0.396355, 131.459, 0.409068, 12.6651, 0.401487, -107.5
22, 2700.00000, 2303.7, -3.48292, 2375.74, -122.301, 2332.5, 117.533, 0.389348, 131.514, 0.401557, 12.6978, 0.39423, -107.468
23, 0.00000, 2306.91, -3.42859, 2377.41, -122.268, 2334.81, 117.564, 0.382319, 131.568, 0.394035, 12.7305, 0.386959, -107.436
23, 900.00000, 2310.11, -3.37429, 2379.07, -122.236, 2337.13, 117.596, 0.375269, 131.622, 0.386503, 12.7631, 0.379672, -107.404
23, 1800.00000, 2312.21, -3.33859, 2380.17, -122.215, 2338.68, 117.618, 0.368032, 131.659, 0.378869, 12.7847, 0.372253, -107.383
23, 2700.00000, 2314.3, -3.30302, 2381.26, -122.193, 2340.22, 117.639, 0.363426, 131.695, 0.373961, 12.8059, 0.367504, -107.361
24, 0.00000, 2316.39, -3.26747, 2382.36, -122.172, 2341.76, 117.661, 0.35881, 131.73, 0.369048, 12.8271, 0.362748, -107.34
