hour,t(sec),V1,VAngle1,I1,IAngle1
0, 900.00000, 2407.49, -1.21069, 7.15206, 152.224
0, 1800.00000, 2407.98, -1.20361, 7.09739, 152.231
0, 2700.00000, 2408.47, -1.19649, 7.04265, 152.238
1, 0.00000, 2408.95, -1.18938, 6.98792, 152.246
1, 900.00000, 2409.45, -1.182, 6.93307, 152.253
1, 1800.00000, 2409.7, -1.17815, 6.90104, 152.257
1, 2700.00000, 2409.95, -1.17426, 6.86894, 152.261
2, 0.00000, 2410.2, -1.17038, 6.83684, 152.265
2, 900.00000, 2410.46, -1.1665, 6.80474, 152.268
2, 1800.00000, 2410.56, -1.16492, 6.79045, 152.27
2, 2700.00000, 2410.65, -1.16335, 6.77618, 152.272
3, 0.00000, 2410.75, -1.16178, 6.76191, 152.273
3, 900.00000, 2410.85, -1.16021, 6.74765, 152.275
3, 1800.00000, 2410.56, -1.16421, 6.77294, 152.271
3, 2700.00000, 2410.26, -1.16824, 6.79829, 152.267
4, 0.00000, 2409.96, -1.17227, 6.82365, 152.263
4, 900.00000, 2409.66, -1.17629, 6.84901, 152.259
4, 1800.00000, 2408.81, -1.18804, 6.92848, 152.247
4, 2700.00000, 2407.95, -1.19982, 7.00805, 152.235
5, 0.00000, 2407.09, -1.21159, 7.08763, 152.223
5, 900.00000, 2406.24, -1.22336, 7.16721, 152.212
5, 1800.00000, 2404.56, -1.24612, 7.3199, 152.189
5, 2700.00000, 2402.91, -1.26852, 7.47235, 152.166
6, 0.00000, 2401.25, -1.29091, 7.62489, 152.144
6, 900.00000, 2399.6, -1.31334, 7.77746, 152.122
6, 1800.00000, 2398.77, -1.3243, 7.84945, 152.111
6, 2700.00000, 2413.08, -1.32794, 7.9169, 152.107
7, 0.00000, 2412.25, -1.3388, 7.98879, 152.096
7, 900.00000, 2411.42, -1.34974, 8.0609, 152.085
7, 1800.00000, 2413.12, -1.28825, 8.06653, 152.147
7, 2700.00000, 2413.9, -1.25926, 8.07239, 152.176
8, 0.00000, 2414.64, -1.23184, 8.0779, 152.203
8, 900.00000, 2415.35, -1.2049, 8.08386, 152.23
8, 1800.00000, 2416.03, -1.1828, 8.06881, 152.252
8, 2700.00000, 2416.7, -1.16073, 8.05378, 152.274
9, 0.00000, 2417.37, -1.13867, 8.03874, 152.296
9, 900.00000, 2417.98, -1.11812, 8.02363, 152.317
9, 1800.00000, 2418.21, -1.10901, 8.02357, 152.326
9, 2700.00000, 2418.45, -1.09988, 8.02348, 152.335
10, 0.00000, 2418.68, -1.09076, 8.02339, 152.344
10, 900.00000, 2418.91, -1.08164, 8.0233, 152.353
10, 1800.00000, 2419.14, -1.07638, 8.00503, 152.359
10, 2700.00000, 2419.38, -1.07113, 7.98677, 152.364
11, 0.00000, 2419.61, -1.06588, 7.96851, 152.369
11, 900.00000, 2419.84, -1.06063, 7.95025, 152.374
11, 1800.00000, 2420.01, -1.05751, 7.93045, 152.377
11, 2700.00000, 2420.19, -1.05438, 7.91067, 152.381
12, 0.00000, 2420.36, -1.05126, 7.89088, 152.384
12, 900.00000, 2420.53, -1.04814, 7.8711, 152.387
12, 1800.00000, 2420.47, -1.05266, 7.85871, 152.382
12, 2700.00000, 2420.41, -1.0572, 7.84636, 152.378
13, 0.00000, 2420.34, -1.06174, 7.83401, 152.373
13, 900.00000, 2420.28, -1.06628, 7.82167, 152.369
13, 1800.00000, 2420.04, -1.07572, 7.82053, 152.359
13, 2700.00000, 2419.79, -1.08517, 7.81943, 152.35
14, 0.00000, 2419.55, -1.09463, 7.81833, 152.34
14, 900.00000, 2419.3, -1.10409, 7.81723, 152.331
14, 1800.00000, 2418.69, -1.12585, 7.82834, 152.309
14, 2700.00000, 2418.06, -1.14764, 7.83953, 152.287
15, 0.00000, 2417.44, -1.16945, 7.85072, 152.265
15, 900.00000, 2416.81, -1.19128, 7.86191, 152.244
15, 1800.00000, 2415.37, -1.22881, 7.94663, 152.206
15, 2700.00000, 2413.42, -1.28534, 8.03137, 152.15
16, 0.00000, 2412.15, -1.31523, 8.11595, 152.12
16, 900.00000, 2410.22, -1.36751, 8.20082, 152.067
16, 1800.00000, 2408.24, -1.39564, 8.42689, 152.039
16, 2700.00000, 2406.26, -1.42378, 8.65309, 152.011
17, 0.00000, 2404.25, -1.45863, 8.87947, 151.976
17, 900.00000, 2402.34, -1.48527, 9.10558, 151.95
17, 1800.00000, 2417.06, -1.4834, 9.15296, 151.952
17, 2700.00000, 2416.62, -1.48962, 9.20541, 151.945
18, 0.00000, 2416.18, -1.49594, 9.25814, 151.939
18, 900.00000, 2415.74, -1.50226, 9.31088, 151.933
18, 1800.00000, 2416.13, -1.49726, 9.27585, 151.938
18, 2700.00000, 2416.52, -1.49216, 9.24058, 151.943
19, 0.00000, 2416.92, -1.48705, 9.20531, 151.948
19, 900.00000, 2417.31, -1.48195, 9.17005, 151.953
19, 1800.00000, 2417.89, -1.47426, 9.11492, 151.961
19, 2700.00000, 2418.47, -1.46655, 9.05974, 151.968
20, 0.00000, 2419.06, -1.45883, 9.00456, 151.976
20, 900.00000, 2419.66, -1.45074, 8.94915, 151.984
20, 1800.00000, 2420.78, -1.43761, 8.84915, 151.997
20, 2700.00000, 2406.66, -1.42361, 8.75413, 152.011
21, 0.00000, 2407.66, -1.40988, 8.65435, 152.025
21, 900.00000, 2408.66, -1.39627, 8.55451, 152.039
21, 1800.00000, 2410, -1.37181, 8.41039, 152.063
21, 2700.00000, 2411.41, -1.3525, 8.26664, 152.082
22, 0.00000, 2412.81, -1.33314, 8.12283, 152.102
22, 900.00000, 2414.23, -1.31347, 7.97897, 152.121
22, 1800.00000, 2415.66, -1.2937, 7.82987, 152.141
22, 2700.00000, 2417.16, -1.26786, 7.6806, 152.167
23, 0.00000, 2418.57, -1.24807, 7.53157, 152.187
23, 900.00000, 2419.92, -1.22986, 7.38248, 152.205
23, 1800.00000, 2405.81, -1.22329, 7.28524, 152.212
23, 2700.00000, 2406.73, -1.21014, 7.18392, 152.225
24, 0.00000, 2407.67, -1.19689, 7.08236, 152.238
