hour,t(sec),V1,VAngle1,I1,IAngle1
4776, 900.00000, 3035.93, -138.414, 7.17034, 15.0208
4776, 1800.00000, 3037.66, -138.403, 7.09142, 15.0324
4776, 2700.00000, 3039.38, -138.391, 7.01241, 15.0441
4777, 0.00000, 3041.11, -138.379, 6.9333, 15.0558
4777, 900.00000, 3042.84, -138.367, 6.8541, 15.0675
4777, 1800.00000, 3044.16, -138.358, 6.80681, 15.0772
4777, 2700.00000, 3045.49, -138.348, 6.75947, 15.0868
4778, 0.00000, 3046.81, -138.338, 6.7121, 15.0965
4778, 900.00000, 3048.14, -138.329, 6.66468, 15.1062
4778, 1800.00000, 3049.14, -138.322, 6.62181, 15.1131
4778, 2700.00000, 3050.14, -138.315, 6.57892, 15.12
4779, 0.00000, 3051.14, -138.308, 6.536, 15.127
4779, 900.00000, 3052.14, -138.301, 6.49305, 15.1339
4779, 1800.00000, 3052.42, -138.299, 6.48083, 15.1358
4779, 2700.00000, 3052.7, -138.297, 6.46862, 15.1378
4780, 0.00000, 3052.98, -138.295, 6.4564, 15.1398
4780, 900.00000, 3053.26, -138.293, 6.44419, 15.1418
4780, 1800.00000, 3053.23, -138.294, 6.43625, 15.1412
4780, 2700.00000, 3053.2, -138.294, 6.42832, 15.1406
4781, 0.00000, 3053.17, -138.295, 6.42039, 15.1401
4781, 900.00000, 3053.14, -138.295, 6.41245, 15.1395
4781, 1800.00000, 3053.39, -138.294, 6.39586, 15.1409
4781, 2700.00000, 3053.64, -138.293, 6.37925, 15.1423
4782, 0.00000, 3053.89, -138.291, 6.36265, 15.1438
4782, 900.00000, 3054.15, -138.29, 6.34604, 15.1452
4782, 1800.00000, 3052.91, -138.298, 6.39934, 15.1365
4782, 2700.00000, 3051.67, -138.307, 6.45262, 15.1279
4783, 0.00000, 3050.43, -138.316, 6.50586, 15.1194
4783, 900.00000, 3049.2, -138.324, 6.55905, 15.1108
4783, 1800.00000, 3047.25, -138.337, 6.65197, 15.098
4783, 2700.00000, 3045.31, -138.35, 6.74477, 15.0853
4784, 0.00000, 3043.37, -138.362, 6.83745, 15.0726
4784, 900.00000, 3041.44, -138.375, 6.93001, 15.0599
4784, 1800.00000, 3039.32, -138.389, 7.03134, 15.0462
4784, 2700.00000, 3037.21, -138.402, 7.13253, 15.0325
4785, 0.00000, 3035.1, -138.416, 7.23359, 15.0189
4785, 900.00000, 3033, -138.43, 7.3345, 15.0052
4785, 1800.00000, 3030.89, -138.444, 7.42829, 14.9911
4785, 2700.00000, 3028.78, -138.458, 7.52196, 14.977
4786, 0.00000, 3026.68, -138.472, 7.61549, 14.963
4786, 900.00000, 3024.58, -138.486, 7.70889, 14.9489
4786, 1800.00000, 3022.59, -138.499, 7.80235, 14.936
4786, 2700.00000, 3020.61, -138.512, 7.89568, 14.9231
4787, 0.00000, 3018.63, -138.525, 7.98889, 14.9102
4787, 900.00000, 3016.65, -138.538, 8.08198, 14.8973
4787, 1800.00000, 3014.81, -138.549, 8.17663, 14.8859
4787, 2700.00000, 3012.98, -138.561, 8.27117, 14.8744
4788, 0.00000, 3011.14, -138.572, 8.3656, 14.863
4788, 900.00000, 3009.31, -138.583, 8.45991, 14.8516
4788, 1800.00000, 3007.26, -138.596, 8.55878, 14.8385
4788, 2700.00000, 3005.2, -138.61, 8.65753, 14.8253
4789, 0.00000, 3003.15, -138.623, 8.75613, 14.8122
4789, 900.00000, 3001.11, -138.636, 8.8546, 14.7991
4789, 1800.00000, 2999.5, -138.646, 8.93167, 14.7887
4789, 2700.00000, 2997.9, -138.657, 9.00865, 14.7784
4790, 0.00000, 2996.3, -138.667, 9.08554, 14.7681
4790, 900.00000, 2994.7, -138.677, 9.16236, 14.7578
4790, 1800.00000, 2993.34, -138.687, 9.21407, 14.748
4790, 2700.00000, 2991.98, -138.697, 9.26575, 14.7382
4791, 0.00000, 2990.62, -138.707, 9.31737, 14.7284
4791, 900.00000, 2989.26, -138.716, 9.36894, 14.7186
4791, 1800.00000, 2988.33, -138.724, 9.39481, 14.7113
4791, 2700.00000, 2987.4, -138.731, 9.42066, 14.7039
4792, 0.00000, 2986.48, -138.738, 9.44649, 14.6965
4792, 900.00000, 2985.55, -138.746, 9.47231, 14.6892
4792, 1800.00000, 2985.06, -138.75, 9.48495, 14.6852
4792, 2700.00000, 2984.58, -138.754, 9.49759, 14.6812
4793, 0.00000, 2984.09, -138.758, 9.51023, 14.6772
4793, 900.00000, 2983.6, -138.762, 9.52286, 14.6733
4793, 1800.00000, 2984.01, -138.759, 9.50134, 14.6757
4793, 2700.00000, 2984.42, -138.757, 9.47981, 14.6781
4794, 0.00000, 2984.82, -138.754, 9.45827, 14.6805
4794, 900.00000, 2985.23, -138.752, 9.43673, 14.6829
4794, 1800.00000, 2986.53, -138.743, 9.39021, 14.6923
4794, 2700.00000, 2987.82, -138.733, 9.34364, 14.7016
4795, 0.00000, 2989.12, -138.724, 9.29704, 14.711
4795, 900.00000, 2990.42, -138.715, 9.25039, 14.7203
4795, 1800.00000, 2990.71, -138.712, 9.2497, 14.723
4795, 2700.00000, 2991, -138.709, 9.24901, 14.7257
4796, 0.00000, 2991.28, -138.707, 9.24831, 14.7284
4796, 900.00000, 2991.57, -138.704, 9.24762, 14.7311
4796, 1800.00000, 2993.34, -138.692, 9.17243, 14.7432
4796, 2700.00000, 2995.11, -138.68, 9.09715, 14.7552
4797, 0.00000, 2996.88, -138.668, 9.02177, 14.7672
4797, 900.00000, 2998.65, -138.656, 8.94631, 14.7793
4797, 1800.00000, 3002.19, -138.632, 8.78378, 14.8026
4797, 2700.00000, 3005.75, -138.609, 8.62086, 14.826
4798, 0.00000, 3009.3, -138.585, 8.45755, 14.8494
4798, 900.00000, 3012.87, -138.562, 8.29385, 14.873
4798, 1800.00000, 3016.36, -138.539, 8.13715, 14.8963
4798, 2700.00000, 3019.86, -138.515, 7.98008, 14.9197
4799, 0.00000, 3023.37, -138.492, 7.82264, 14.9432
4799, 900.00000, 3026.88, -138.468, 7.66482, 14.9667
4799, 1800.00000, 3029.52, -138.45, 7.55806, 14.9851
4799, 2700.00000, 3032.16, -138.431, 7.45111, 15.0035
4800, 0.00000, 3034.81, -138.413, 7.34397, 15.0219
