hour,t(sec),"P1 (kW)","Q1 (kvar)","P2 (kW)","Q2 (kvar)","P3 (kW)","Q3 (kvar)"
0, 900.00000, 561.748, 41.309, 448.93, 1.73504, 479.955, 2.62152
0, 1800.00000, 707.616, 76.2293, 597.136, 35.2304, 627.698, 36.5592
0, 2700.00000, 702.577, 73.3428, 592.819, 32.9699, 622.935, 34.1437
1, 0.00000, 697.467, 70.4075, 588.488, 30.6975, 618.127, 31.7044
1, 900.00000, 692.355, 67.4725, 584.156, 28.4263, 613.318, 29.266
1, 1800.00000, 689.169, 65.7538, 581.445, 27.2055, 610.011, 27.7523
1, 2700.00000, 686.515, 64.1798, 579.262, 26.116, 607.235, 26.373
2, 0.00000, 683.862, 62.6074, 577.079, 25.0273, 604.46, 24.9949
2, 900.00000, 681.208, 61.0352, 574.897, 23.939, 601.685, 23.6171
2, 1800.00000, 679.797, 60.326, 573.618, 23.4029, 600.2, 22.9765
2, 2700.00000, 678.796, 59.7268, 572.747, 22.9672, 599.129, 22.4404
3, 0.00000, 677.797, 59.1285, 571.878, 22.5321, 598.059, 21.905
3, 900.00000, 676.797, 58.5303, 571.008, 22.0969, 596.989, 21.3696
3, 1800.00000, 679.077, 60.0424, 572.787, 23.358, 598.662, 22.4823
3, 2700.00000, 682.302, 61.8091, 575.506, 24.8509, 601.282, 23.8332
4, 0.00000, 685.53, 63.5785, 578.227, 26.3455, 603.905, 25.1858
4, 900.00000, 688.757, 65.3482, 580.947, 27.8405, 606.527, 26.5387
4, 1800.00000, 696.566, 70.0541, 587.394, 31.7355, 612.905, 30.1649
4, 2700.00000, 705.679, 75.1173, 595.143, 35.9564, 620.594, 34.1247
5, 0.00000, 714.788, 80.1865, 602.892, 40.1826, 628.283, 38.0892
5, 900.00000, 723.889, 85.2582, 610.64, 44.4122, 635.968, 42.0567
5, 1800.00000, 739.561, 94.4497, 623.954, 52.303, 648.511, 49.064
5, 2700.00000, 756.871, 104.073, 638.988, 60.6292, 662.753, 56.5054
6, 0.00000, 774.151, 113.706, 654.015, 68.969, 676.984, 63.957
6, 900.00000, 791.4, 123.349, 669.035, 77.3222, 691.204, 71.4187
6, 1800.00000, 801.941, 128.693, 678.448, 82.0307, 700.067, 75.5882
6, 2700.00000, 810.625, 133.532, 685.99, 86.2671, 707.059, 79.2779
7, 0.00000, 819.3, 138.373, 693.531, 90.5067, 714.048, 82.9699
7, 900.00000, 827.967, 143.216, 701.07, 94.7499, 721.034, 86.6644
7, 1800.00000, 792.664, 140.849, 688.091, 95.0168, 708.301, 86.5798
7, 2700.00000, 777.396, 139.901, 682.02, 95.1242, 702.298, 86.5013
8, 0.00000, 762.134, 138.997, 675.938, 95.2346, 696.294, 86.4268
8, 900.00000, 746.886, 138.125, 669.855, 95.3467, 690.292, 86.3517
8, 1800.00000, 734.412, 136.689, 664.287, 94.7697, 684.697, 85.613
8, 2700.00000, 721.504, 135.138, 658.317, 94.0935, 678.677, 84.7604
9, 0.00000, 708.603, 133.606, 652.345, 93.4187, 672.658, 83.9072
9, 900.00000, 695.709, 132.095, 646.373, 92.7456, 666.64, 83.0542
9, 1800.00000, 689.641, 131.586, 643.849, 92.7871, 663.699, 82.7719
9, 2700.00000, 683.801, 131.151, 641.53, 92.8808, 660.978, 82.5488
10, 0.00000, 677.963, 130.72, 639.212, 92.9749, 658.258, 82.3261
10, 900.00000, 672.127, 130.294, 636.893, 93.0691, 655.538, 82.1034
10, 1800.00000, 669.545, 129.341, 635.46, 92.4557, 653.816, 81.3332
10, 2700.00000, 666.635, 128.304, 633.684, 91.7533, 651.761, 80.4767
11, 0.00000, 663.723, 127.268, 631.908, 91.0505, 649.705, 79.6199
11, 900.00000, 660.812, 126.232, 630.132, 90.3479, 647.648, 78.7632
11, 1800.00000, 658.809, 125.229, 628.74, 89.6855, 645.833, 77.8781
11, 2700.00000, 656.791, 124.225, 627.329, 89.0186, 644.001, 76.9888
12, 0.00000, 654.772, 123.22, 625.919, 88.3517, 642.169, 76.0998
12, 900.00000, 652.754, 122.215, 624.508, 87.6851, 640.336, 75.2109
12, 1800.00000, 654.84, 121.841, 623.996, 87.2392, 639.547, 74.6821
12, 2700.00000, 657.131, 121.525, 623.676, 86.8397, 638.961, 74.2073
13, 0.00000, 659.423, 121.212, 623.357, 86.4405, 638.376, 73.733
13, 900.00000, 661.716, 120.899, 623.037, 86.0412, 637.791, 73.2587
13, 1800.00000, 666.985, 121.141, 624.617, 86.0154, 639.164, 73.2122
13, 2700.00000, 672.424, 121.435, 626.36, 86.031, 640.706, 73.2103
14, 0.00000, 677.866, 121.734, 628.104, 86.0469, 642.249, 73.2086
14, 900.00000, 683.309, 122.037, 629.847, 86.0629, 643.792, 73.2067
14, 1800.00000, 695.286, 123.173, 635.048, 86.2316, 649.528, 73.8477
14, 2700.00000, 707.531, 124.404, 640.494, 86.462, 655.526, 74.5602
15, 0.00000, 719.783, 125.654, 645.94, 86.6939, 661.527, 75.2735
15, 900.00000, 732.041, 126.922, 651.386, 86.927, 667.53, 75.9871
15, 1800.00000, 754.163, 131.922, 663.503, 89.8863, 680.606, 79.5812
15, 2700.00000, 787.499, 138.316, 677.143, 93.0862, 695.063, 83.5411
16, 0.00000, 807.89, 143.343, 692.448, 96.5321, 711.362, 87.5393
16, 900.00000, 839.018, 149.589, 711.412, 100.338, 731.207, 91.9804
16, 1800.00000, 856.085, 160.493, 725.978, 108.994, 747.022, 100.957
16, 2700.00000, 875.993, 172.211, 743.462, 118.425, 765.733, 110.715
17, 0.00000, 895.859, 183.945, 760.937, 127.875, 784.423, 120.492
17, 900.00000, 915.683, 195.692, 778.405, 137.344, 803.091, 130.288
17, 1800.00000, 923.519, 199.316, 785.746, 140.305, 810.931, 133.486
17, 2700.00000, 927.924, 201.976, 789.577, 142.347, 815.282, 135.756
18, 0.00000, 932.307, 204.623, 793.397, 144.383, 819.617, 138.019
18, 900.00000, 936.688, 207.271, 797.217, 146.42, 823.951, 140.284
18, 1800.00000, 934.655, 205.602, 795.604, 144.924, 822.664, 139.079
18, 2700.00000, 930.692, 203.343, 792.076, 142.91, 819.442, 137.341
19, 0.00000, 926.715, 201.078, 788.541, 140.893, 816.213, 135.601
19, 900.00000, 922.737, 198.813, 785.006, 138.876, 812.982, 133.861
19, 1800.00000, 917.297, 195.559, 780.262, 136.079, 808.441, 131.32
19, 2700.00000, 911.406, 192.172, 775.073, 133.163, 803.451, 128.658
20, 0.00000, 905.509, 188.783, 769.882, 130.249, 798.456, 125.996
20, 900.00000, 899.607, 185.396, 764.69, 127.336, 793.461, 123.335
20, 1800.00000, 890.266, 179.705, 756.663, 122.579, 785.501, 118.859
20, 2700.00000, 879.966, 173.767, 747.643, 117.574, 776.558, 114.128
21, 0.00000, 869.654, 167.831, 738.62, 112.573, 767.61, 109.402
21, 900.00000, 859.33, 161.9, 729.596, 107.577, 758.657, 104.679
21, 1800.00000, 845.776, 153.836, 717.853, 100.834, 746.92, 98.2599
21, 2700.00000, 831.28, 145.518, 705.176, 93.858, 734.243, 91.6015
22, 0.00000, 816.761, 137.207, 692.494, 86.8918, 721.556, 84.9513
22, 900.00000, 802.22, 128.903, 679.807, 79.9352, 708.86, 78.3092
22, 1800.00000, 787.539, 120.503, 666.986, 72.9253, 695.931, 71.5536
22, 2700.00000, 772.796, 112.098, 654.12, 65.9149, 682.952, 64.796
23, 0.00000, 758.03, 103.701, 641.249, 58.9142, 669.963, 58.0467
23, 900.00000, 743.241, 95.3107, 628.373, 51.9233, 656.964, 51.3057
23, 1800.00000, 732.455, 89.5212, 618.762, 47.0564, 647.253, 46.5771
23, 2700.00000, 722.846, 84.0786, 610.304, 42.4905, 638.714, 42.1609
24, 0.00000, 713.173, 78.5995, 601.833, 37.9182, 630.138, 37.7311
