hour,t(sec),V1,VAngle1,V2,VAngle2,V3,VAngle3,I1,IAngle1,I2,IAngle2,I3,IAngle3
4776, 900.00000, 0.245758, -130.528, 0.370057, 10.7284, 2710.49, 115.461, 58.999, 54.948, 72.2204, -173.439, 55.8019, -93.0234
4776, 1800.00000, 0.245772, -130.488, 0.370264, 11.1542, 2711.69, 115.478, 58.8996, 54.9365, 72.2404, -172.957, 55.1646, -93.0095
4776, 2700.00000, 0.245786, -130.448, 0.370489, 11.5802, 2712.89, 115.495, 58.8002, 54.9249, 72.265, -172.475, 54.5266, -92.9957
4777, 0.00000, 0.2458, -130.408, 0.370732, 12.0057, 2714.1, 115.512, 58.7007, 54.9132, 72.2943, -171.993, 53.8884, -92.982
4777, 900.00000, 0.245815, -130.368, 0.370994, 12.4306, 2715.3, 115.529, 58.6012, 54.9014, 72.3284, -171.511, 53.25, -92.9683
4777, 1800.00000, 0.245829, -130.34, 0.371175, 12.7222, 2716.16, 115.541, 58.5252, 54.8897, 72.3551, -171.175, 52.7974, -92.956
4777, 2700.00000, 0.245844, -130.313, 0.371366, 13.0131, 2717.02, 115.553, 58.4493, 54.878, 72.384, -170.839, 52.3449, -92.9436
4778, 0.00000, 0.245858, -130.285, 0.371564, 13.3039, 2717.87, 115.565, 58.3734, 54.8662, 72.4153, -170.504, 51.8923, -92.9312
4778, 900.00000, 0.245873, -130.257, 0.371771, 13.5943, 2718.73, 115.577, 58.2975, 54.8544, 72.4488, -170.169, 51.4395, -92.9188
4778, 1800.00000, 0.245899, -130.231, 0.371954, 13.8324, 2719.41, 115.586, 58.2429, 54.8492, 72.4774, -169.898, 51.0909, -92.9095
4778, 2700.00000, 0.245924, -130.204, 0.372142, 14.0702, 2720.1, 115.596, 58.1884, 54.8441, 72.5076, -169.627, 50.7423, -92.9003
4779, 0.00000, 0.24595, -130.178, 0.372336, 14.3078, 2720.78, 115.606, 58.1338, 54.8388, 72.5392, -169.356, 50.3937, -92.891
4779, 900.00000, 0.245977, -130.152, 0.372536, 14.5451, 2721.46, 115.615, 58.0793, 54.8336, 72.5723, -169.086, 50.0449, -92.8817
4779, 1800.00000, 0.245964, -130.149, 0.37259, 14.6101, 2721.65, 115.618, 58.0604, 54.829, 72.5816, -169.011, 49.9315, -92.8804
4779, 2700.00000, 0.245953, -130.146, 0.372645, 14.6748, 2721.84, 115.621, 58.0416, 54.8244, 72.591, -168.937, 49.8183, -92.8791
4780, 0.00000, 0.245941, -130.143, 0.372699, 14.7394, 2722.03, 115.623, 58.0227, 54.8199, 72.6006, -168.863, 49.7051, -92.8777
4780, 900.00000, 0.245929, -130.14, 0.372755, 14.8041, 2722.22, 115.626, 58.0039, 54.8153, 72.6102, -168.788, 49.5919, -92.8764
4780, 1800.00000, 0.245894, -130.147, 0.372768, 14.8161, 2722.23, 115.626, 57.9993, 54.8119, 72.6115, -168.777, 49.5518, -92.8802
4780, 2700.00000, 0.245859, -130.153, 0.372782, 14.828, 2722.25, 115.627, 57.9948, 54.8084, 72.6127, -168.766, 49.5118, -92.884
4781, 0.00000, 0.245824, -130.16, 0.372796, 14.8399, 2722.27, 115.627, 57.9902, 54.805, 72.6139, -168.755, 49.4718, -92.8878
4781, 900.00000, 0.245789, -130.166, 0.37281, 14.8517, 2722.29, 115.627, 57.9856, 54.8016, 72.6152, -168.744, 49.4318, -92.8917
4781, 1800.00000, 0.245792, -130.159, 0.372879, 14.9249, 2722.49, 115.63, 57.9715, 54.801, 72.6259, -168.662, 49.3272, -92.8905
4781, 2700.00000, 0.245795, -130.152, 0.372948, 14.9981, 2722.68, 115.633, 57.9574, 54.8004, 72.6367, -168.581, 49.2225, -92.8893
4782, 0.00000, 0.245799, -130.145, 0.373018, 15.0714, 2722.88, 115.635, 57.9432, 54.7998, 72.6477, -168.5, 49.1177, -92.8881
4782, 900.00000, 0.245802, -130.137, 0.373089, 15.1446, 2723.08, 115.638, 57.929, 54.7991, 72.6588, -168.419, 49.013, -92.8869
4782, 1800.00000, 0.245783, -130.167, 0.372827, 14.854, 2722.24, 115.626, 57.9991, 54.808, 72.6138, -168.751, 49.4553, -92.8974
4782, 2700.00000, 0.24574, -130.298, 0.37232, 14.7069, 2721.67, 115.626, 58.0567, 54.7331, 72.509, -168.939, 49.9001, -92.8961
4783, 0.00000, 0.24481, -130.719, 0.370211, 15.4358, 2722.09, 115.661, 57.9172, 54.4389, 72.0135, -168.247, 48.9653, -93.7461
4783, 900.00000, 0.244489, -130.974, 0.369193, 15.607, 2721.98, 115.678, 57.91, 54.2693, 71.7809, -168.116, 49.0277, -93.9743
4783, 1800.00000, 0.244066, -131.229, 0.367912, 15.5918, 2721.25, 115.684, 57.9268, 54.1224, 71.5029, -168.193, 49.2184, -94.2779
4783, 2700.00000, 0.243649, -131.485, 0.36663, 15.5759, 2720.52, 115.69, 57.9441, 53.9756, 71.2249, -168.272, 49.4109, -94.5788
4784, 0.00000, 0.243238, -131.741, 0.365347, 15.5598, 2719.8, 115.695, 57.9619, 53.8291, 70.9471, -168.351, 49.6049, -94.8771
4784, 900.00000, 0.242833, -131.998, 0.364064, 15.5435, 2719.07, 115.701, 57.9801, 53.6828, 70.6693, -168.431, 49.8003, -95.1728
4784, 1800.00000, 0.242528, -132.189, 0.363093, 15.2678, 2717.93, 115.694, 58.0344, 53.593, 70.4745, -168.777, 50.2134, -95.3587
4784, 2700.00000, 0.242226, -132.381, 0.36213, 14.9904, 2716.8, 115.687, 58.0888, 53.5035, 70.2822, -169.126, 50.6271, -95.5415
4785, 0.00000, 0.241928, -132.572, 0.361175, 14.7115, 2715.67, 115.679, 58.1434, 53.4143, 70.0924, -169.476, 51.0413, -95.7212
4785, 900.00000, 0.241633, -132.764, 0.360227, 14.4311, 2714.53, 115.672, 58.1981, 53.3254, 69.9051, -169.828, 51.456, -95.8979
4785, 1800.00000, 0.241479, -132.879, 0.359574, 14.0226, 2713.23, 115.658, 58.2864, 53.2943, 69.7882, -170.31, 52.0599, -95.9499
4785, 2700.00000, 0.241326, -132.995, 0.358937, 13.6126, 2711.93, 115.644, 58.3747, 53.2634, 69.6758, -170.794, 52.6637, -96.001
4786, 0.00000, 0.241175, -133.111, 0.358317, 13.2012, 2710.63, 115.63, 58.4629, 53.2326, 69.5681, -171.279, 53.2673, -96.051
4786, 900.00000, 0.240873, -133.118, 0.359459, 12.7238, 2709.47, 115.602, 58.5331, 53.292, 69.8179, -171.809, 53.8726, -96.1137
4786, 1800.00000, 0.240772, -133.209, 0.358987, 12.2729, 2708.16, 115.586, 58.6265, 53.2768, 69.7474, -172.328, 54.5277, -96.1098
4786, 2700.00000, 0.240673, -133.299, 0.358533, 11.8197, 2706.84, 115.57, 58.7201, 53.2617, 69.6821, -172.849, 55.1835, -96.1062
4787, 0.00000, 0.240576, -133.389, 0.3581, 11.3654, 2705.53, 115.555, 58.8136, 53.2466, 69.6222, -173.372, 55.839, -96.103
4787, 900.00000, 0.240479, -133.479, 0.357688, 10.91, 2704.21, 115.539, 58.907, 53.2316, 69.5676, -173.895, 56.4943, -96.1002
4787, 1800.00000, 0.240412, -133.541, 0.357419, 10.4115, 2702.87, 115.52, 59.0002, 53.2341, 69.549, -174.454, 57.1548, -96.0773
4787, 2700.00000, 0.240345, -133.602, 0.357175, 9.91231, 2701.52, 115.502, 59.0933, 53.2366, 69.5365, -175.014, 57.8152, -96.0553
4788, 0.00000, 0.24028, -133.663, 0.356955, 9.41251, 2700.18, 115.483, 59.1863, 53.239, 69.5301, -175.574, 58.4752, -96.0342
4788, 900.00000, 0.240214, -133.724, 0.35676, 8.91218, 2698.84, 115.464, 59.2794, 53.2413, 69.5297, -176.134, 59.1351, -96.0139
4788, 1800.00000, 0.24018, -133.769, 0.356708, 8.31512, 2697.29, 115.441, 59.3936, 53.2614, 69.5673, -176.797, 59.9135, -95.9656
4788, 2700.00000, 0.240146, -133.814, 0.356691, 7.71784, 2695.74, 115.418, 59.5079, 53.2813, 69.6134, -177.46, 60.6916, -95.9191
4789, 0.00000, 0.240114, -133.858, 0.356708, 7.12059, 2694.19, 115.395, 59.6221, 53.3011, 69.668, -178.121, 61.4695, -95.8743
4789, 900.00000, 0.240082, -133.903, 0.35676, 6.52349, 2692.64, 115.372, 59.7364, 53.3206, 69.731, -178.781, 62.247, -95.8313
4789, 1800.00000, 0.239944, -133.818, 0.358599, 5.99614, 2691.49, 115.34, 59.817, 53.4304, 70.1446, -179.332, 62.8379, -95.8321
4789, 2700.00000, 0.239925, -133.859, 0.358686, 5.53549, 2690.28, 115.322, 59.9063, 53.4401, 70.2042, -179.841, 63.4258, -95.8189
4790, 0.00000, 0.239908, -133.899, 0.358793, 5.07345, 2689.07, 115.304, 59.9958, 53.4498, 70.2689, 179.65, 64.0146, -95.8063
4790, 900.00000, 0.239891, -133.94, 0.358921, 4.6117, 2687.86, 115.286, 60.0853, 53.4595, 70.3386, 179.141, 64.6033, -95.7941
4790, 1800.00000, 0.239975, -133.933, 0.359224, 4.20689, 2686.83, 115.269, 60.1824, 53.4955, 70.4374, 178.694, 65.1481, -95.778
4790, 2700.00000, 0.240058, -133.927, 0.359542, 3.8029, 2685.79, 115.251, 60.2795, 53.5313, 70.5401, 178.249, 65.6926, -95.7625
4791, 0.00000, 0.240142, -133.921, 0.359875, 3.39958, 2684.75, 115.234, 60.3767, 53.567, 70.6465, 177.806, 66.237, -95.7475
4791, 900.00000, 0.240227, -133.914, 0.360224, 2.99696, 2683.71, 115.216, 60.4739, 53.6024, 70.7567, 177.363, 66.7812, -95.7331
4791, 1800.00000, 0.240389, -133.856, 0.360692, 2.68141, 2682.96, 115.202, 60.5654, 53.6645, 70.8822, 177.021, 67.2734, -95.6689
4791, 2700.00000, 0.240551, -133.799, 0.361168, 2.36692, 2682.2, 115.187, 60.657, 53.7263, 71.0098, 176.68, 67.7653, -95.6059
4792, 0.00000, 0.240714, -133.741, 0.361654, 2.05322, 2681.44, 115.172, 60.7486, 53.7878, 71.1397, 176.341, 68.2573, -95.5441
4792, 900.00000, 0.240877, -133.684, 0.36215, 1.74031, 2680.68, 115.157, 60.8403, 53.8491, 71.2718, 176.003, 68.7492, -95.4834
4792, 1800.00000, 0.241093, -133.57, 0.362908, 1.42638, 2680.04, 115.14, 60.9225, 53.9407, 71.4582, 175.682, 69.1851, -95.3788
4792, 2700.00000, 0.241311, -133.456, 0.363674, 1.11379, 2679.4, 115.122, 61.0049, 54.0319, 71.6465, 175.363, 69.621, -95.2758
4793, 0.00000, 0.24153, -133.343, 0.36445, 0.802439, 2678.76, 115.105, 61.0875, 54.1228, 71.8366, 175.045, 70.0572, -95.1744
4793, 900.00000, 0.241751, -133.23, 0.365235, 0.492341, 2678.12, 115.088, 61.1703, 54.2133, 72.0285, 174.729, 70.4934, -95.0744
4793, 1800.00000, 0.242066, -133.039, 0.366441, 0.240416, 2677.88, 115.071, 61.2266, 54.3388, 72.2999, 174.505, 70.787, -94.8899
4793, 2700.00000, 0.242385, -132.849, 0.367652, -0.00958948, 2677.64, 115.054, 61.2833, 54.464, 72.5721, 174.283, 71.081, -94.7071
4794, 0.00000, 0.242706, -132.659, 0.368868, -0.258104, 2677.4, 115.038, 61.3404, 54.5889, 72.8451, 174.063, 71.3758, -94.526
4794, 900.00000, 0.243031, -132.471, 0.37009, -0.505136, 2677.15, 115.021, 61.3978, 54.7134, 73.1188, 173.844, 71.6714, -94.3466
4794, 1800.00000, 0.243346, -132.203, 0.371451, -0.664123, 2677.23, 115.002, 61.4084, 54.8769, 73.4113, 173.743, 71.6365, -94.173
4794, 2700.00000, 0.24371, -132.035, 0.373738, -1.04528, 2677.15, 114.979, 61.4176, 54.9605, 73.9152, 173.433, 71.6007, -94.0039
4795, 0.00000, 0.244372, -131.557, 0.375187, -1.19913, 2677.27, 114.962, 61.5179, 55.2847, 74.2248, 173.338, 72.3391, -93.4927
4795, 900.00000, 0.244351, -131.536, 0.374963, -0.907081, 2678.14, 114.974, 61.4371, 55.2715, 74.1486, 173.665, 71.8705, -93.4815
4795, 1800.00000, 0.244324, -131.539, 0.374927, -0.86844, 2678.29, 114.976, 61.4147, 55.2633, 74.1378, 173.714, 71.7732, -93.4792
4795, 2700.00000, 0.244298, -131.542, 0.37489, -0.830553, 2678.43, 114.978, 61.3923, 55.2551, 74.1271, 173.762, 71.6764, -93.4769
4796, 0.00000, 0.244272, -131.545, 0.374854, -0.792662, 2678.57, 114.98, 61.37, 55.2469, 74.1164, 173.81, 71.5796, -93.4746
4796, 900.00000, 0.244246, -131.547, 0.374818, -0.754766, 2678.72, 114.982, 61.3477, 55.2386, 74.1058, 173.858, 71.4828, -93.4723
4796, 1800.00000, 0.244245, -131.51, 0.374521, -0.324136, 2679.97, 115, 61.2435, 55.2271, 74.0008, 174.334, 70.8383, -93.4568
4796, 2700.00000, 0.244242, -131.473, 0.374243, 0.108275, 2681.22, 115.017, 61.1391, 55.2155, 73.9003, 174.812, 70.1928, -93.4414
4797, 0.00000, 0.24424, -131.436, 0.373983, 0.541276, 2682.47, 115.035, 61.0347, 55.2038, 73.8044, 175.292, 69.5471, -93.4259
4797, 900.00000, 0.244239, -131.399, 0.373743, 0.974824, 2683.72, 115.052, 60.9303, 55.192, 73.7133, 175.773, 68.9011, -93.4104
4797, 1800.00000, 0.244296, -131.308, 0.373316, 1.87747, 2686.29, 115.088, 60.7327, 55.1791, 73.5401, 176.77, 67.6261, -93.3778
4797, 2700.00000, 0.244354, -131.217, 0.372973, 2.78327, 2688.85, 115.124, 60.5348, 55.166, 73.3871, 177.772, 66.3492, -93.3453
4798, 0.00000, 0.244415, -131.126, 0.372713, 3.6905, 2691.42, 115.161, 60.3368, 55.1525, 73.2546, 178.778, 65.0714, -93.3127
4798, 900.00000, 0.244478, -131.034, 0.372537, 4.59876, 2693.98, 115.197, 60.1386, 55.1386, 73.1428, 179.788, 63.7925, -93.2801
4798, 1800.00000, 0.244535, -130.946, 0.372444, 5.47711, 2696.47, 115.232, 59.9433, 55.1228, 73.0544, -179.231, 62.5448, -93.2482
4798, 2700.00000, 0.244594, -130.858, 0.372429, 6.35566, 2698.96, 115.267, 59.748, 55.1067, 72.9855, -178.249, 61.2963, -93.2163
4799, 0.00000, 0.244656, -130.77, 0.372492, 7.23413, 2701.45, 115.302, 59.5525, 55.0902, 72.9362, -177.264, 60.0467, -93.1844
4799, 900.00000, 0.244721, -130.682, 0.372634, 8.11218, 2703.94, 115.337, 59.3569, 55.0733, 72.9066, -176.279, 58.7962, -93.1525
4799, 1800.00000, 0.244775, -130.617, 0.372777, 8.74142, 2705.75, 115.362, 59.2107, 55.0587, 72.8976, -175.567, 57.8911, -93.127
4799, 2700.00000, 0.244831, -130.552, 0.37296, 9.36948, 2707.56, 115.388, 59.0645, 55.0438, 72.899, -174.855, 56.9859, -93.1014
4800, 0.00000, 0.244889, -130.486, 0.373183, 9.99691, 2709.37, 115.413, 58.9182, 55.0288, 72.9106, -174.143, 56.0802, -93.0756
